Title: ** sch_path: /foss/designs/daci2025/tp1/tp1_1.sch
Date: Sun Jun 29 21:57:59  2025
Command: ngspice-44.2, Build Tue Mar 18 10:43:20 UTC 2025
Plotname: DC transfer characteristic
Flags: real
No. Variables: 33
No. Points: 361
Variables:
	0	v(v-sweep)	voltage
	1	@m.xm1.msky130_fd_pr__nfet_01v8[cgg]	capacitance
	2	@m.xm1.msky130_fd_pr__nfet_01v8[gm]	admittance
	3	i(@m.xm1.msky130_fd_pr__nfet_01v8[id])	current
	4	v(@m.xm1.msky130_fd_pr__nfet_01v8[vds])	voltage
	5	v(@m.xm1.msky130_fd_pr__nfet_01v8[vdsat])	voltage
	6	v(@m.xm1.msky130_fd_pr__nfet_01v8[vgs])	voltage
	7	v(@m.xm1.msky130_fd_pr__nfet_01v8[vth])	voltage
	8	@m.xm2.msky130_fd_pr__nfet_01v8[gm]	admittance
	9	i(@m.xm2.msky130_fd_pr__nfet_01v8[id])	current
	10	v(@m.xm2.msky130_fd_pr__nfet_01v8[vds])	voltage
	11	v(@m.xm2.msky130_fd_pr__nfet_01v8[vdsat])	voltage
	12	v(@m.xm2.msky130_fd_pr__nfet_01v8[vgs])	voltage
	13	v(@m.xm2.msky130_fd_pr__nfet_01v8[vth])	voltage
	14	@m.xm3.msky130_fd_pr__nfet_01v8[gm]	admittance
	15	i(@m.xm3.msky130_fd_pr__nfet_01v8[id])	current
	16	v(@m.xm3.msky130_fd_pr__nfet_01v8[vds])	voltage
	17	v(@m.xm3.msky130_fd_pr__nfet_01v8[vdsat])	voltage
	18	v(@m.xm3.msky130_fd_pr__nfet_01v8[vgs])	voltage
	19	v(@m.xm3.msky130_fd_pr__nfet_01v8[vth])	voltage
	20	v(d)	voltage
	21	v(g)	voltage
	22	v(m.xm1.msky130_fd_pr__nfet_01v8#body)	voltage
	23	v(m.xm1.msky130_fd_pr__nfet_01v8#dbody)	voltage
	24	v(m.xm1.msky130_fd_pr__nfet_01v8#sbody)	voltage
	25	v(m.xm2.msky130_fd_pr__nfet_01v8#body)	voltage
	26	v(m.xm2.msky130_fd_pr__nfet_01v8#dbody)	voltage
	27	v(m.xm2.msky130_fd_pr__nfet_01v8#sbody)	voltage
	28	v(m.xm3.msky130_fd_pr__nfet_01v8#body)	voltage
	29	v(m.xm3.msky130_fd_pr__nfet_01v8#dbody)	voltage
	30	v(m.xm3.msky130_fd_pr__nfet_01v8#sbody)	voltage
	31	i(vds)	current
	32	i(vgs)	current
Values:
 0	-1.800000000000000e+00
	1.003383582546655e-15
	0.000000000000000e+00
	0.000000000000000e+00
	0.000000000000000e+00
	4.305376505935870e-02
	-1.800000000000000e+00
	7.695458201730494e-01
	0.000000000000000e+00
	0.000000000000000e+00
	0.000000000000000e+00
	3.860784231252958e-02
	-1.800000000000000e+00
	5.306675321107350e-01
	0.000000000000000e+00
	0.000000000000000e+00
	0.000000000000000e+00
	3.860784231252958e-02
	-1.800000000000000e+00
	5.306675321107350e-01
	0.000000000000000e+00
	-1.800000000000000e+00
	2.735834868889823e-47
	4.103727489347767e-47
	4.103777117321699e-47
	6.443216005767115e-41
	-1.861939458990474e-40
	3.794904260720609e-40
	6.443216005767115e-41
	-1.861939458990474e-40
	3.794904260720608e-40
	3.581924414453137e-40
	0.000000000000000e+00

 1	-1.790000000000000e+00
	1.002212880321948e-15
	0.000000000000000e+00
	0.000000000000000e+00
	0.000000000000000e+00
	4.305376505935870e-02
	-1.790000000000000e+00
	7.695458201730494e-01
	0.000000000000000e+00
	0.000000000000000e+00
	0.000000000000000e+00
	3.860784231252958e-02
	-1.790000000000000e+00
	5.306675321107350e-01
	0.000000000000000e+00
	0.000000000000000e+00
	0.000000000000000e+00
	3.860784231252958e-02
	-1.790000000000000e+00
	5.306675321107350e-01
	0.000000000000000e+00
	-1.790000000000000e+00
	2.712542783714326e-47
	4.068789556334644e-47
	4.068838794808334e-47
	5.028258045454145e-40
	5.196049746561659e-40
	9.888724389800778e-40
	5.028258045454144e-40
	5.196049746561658e-40
	9.888724389800775e-40
	-4.398349998158710e-40
	0.000000000000000e+00

 2	-1.780000000000000e+00
	1.001033897037351e-15
	0.000000000000000e+00
	0.000000000000000e+00
	0.000000000000000e+00
	4.305376505935870e-02
	-1.780000000000000e+00
	7.695458201730494e-01
	0.000000000000000e+00
	0.000000000000000e+00
	0.000000000000000e+00
	3.860784231252958e-02
	-1.780000000000000e+00
	5.306675321107350e-01
	0.000000000000000e+00
	0.000000000000000e+00
	0.000000000000000e+00
	3.860784231252958e-02
	-1.780000000000000e+00
	5.306675321107350e-01
	0.000000000000000e+00
	-1.780000000000000e+00
	2.689350511485287e-47
	4.034001475970669e-47
	4.034050058485192e-47
	-1.437712138459510e-40
	-5.052288761963418e-42
	-4.262613527758896e-40
	-1.437712141986385e-40
	-5.052289324572877e-42
	-4.262613532713427e-40
	-1.096066428498200e-40
	0.000000000000000e+00

 3	-1.770000000000000e+00
	9.998466026008944e-16
	0.000000000000000e+00
	0.000000000000000e+00
	0.000000000000000e+00
	4.305376505935870e-02
	-1.770000000000000e+00
	7.695458201730494e-01
	0.000000000000000e+00
	0.000000000000000e+00
	0.000000000000000e+00
	3.860784231252958e-02
	-1.770000000000000e+00
	5.306675321107350e-01
	0.000000000000000e+00
	0.000000000000000e+00
	0.000000000000000e+00
	3.860784231252958e-02
	-1.770000000000000e+00
	5.306675321107350e-01
	0.000000000000000e+00
	-1.770000000000000e+00
	2.666257802977798e-47
	3.999362762348979e-47
	3.999410646584415e-47
	-3.196325014756506e-40
	-5.436527180241211e-40
	-4.152447864028306e-40
	-3.196325015260568e-40
	-5.436527180661524e-40
	-4.152447865120180e-40
	6.294918053151793e-40
	0.000000000000000e+00

 4	-1.760000000000000e+00
	9.986509670844523e-16
	0.000000000000000e+00
	0.000000000000000e+00
	0.000000000000000e+00
	4.305376505935870e-02
	-1.760000000000000e+00
	7.695458201730494e-01
	0.000000000000000e+00
	0.000000000000000e+00
	0.000000000000000e+00
	3.860784231252958e-02
	-1.760000000000000e+00
	5.306675321107350e-01
	0.000000000000000e+00
	0.000000000000000e+00
	0.000000000000000e+00
	3.860784231252958e-02
	-1.760000000000000e+00
	5.306675321107350e-01
	0.000000000000000e+00
	-1.760000000000000e+00
	2.643264541489163e-47
	3.964873189474887e-47
	3.964920434992603e-47
	-1.016800524774516e-40
	2.285143521750966e-40
	-5.335545096074514e-40
	-1.016800525782639e-40
	2.285143520910344e-40
	-5.335545098258261e-40
	-4.581411816775257e-40
	0.000000000000000e+00

 5	-1.750000000000000e+00
	9.974469607289483e-16
	0.000000000000000e+00
	0.000000000000000e+00
	0.000000000000000e+00
	4.305376505935870e-02
	-1.750000000000000e+00
	7.695458201730494e-01
	0.000000000000000e+00
	0.000000000000000e+00
	0.000000000000000e+00
	3.860784231252958e-02
	-1.750000000000000e+00
	5.306675321107350e-01
	0.000000000000000e+00
	0.000000000000000e+00
	0.000000000000000e+00
	3.860784231252958e-02
	-1.750000000000000e+00
	5.306675321107350e-01
	0.000000000000000e+00
	-1.750000000000000e+00
	2.620371472556436e-47
	3.930533655237568e-47
	3.930580762431740e-47
	1.817820345358459e-40
	3.788991105269117e-40
	1.664469930806259e-40
	1.817820345358458e-40
	3.788991105269116e-40
	1.664469930806259e-40
	-4.723332740164974e-40
	0.000000000000000e+00

 6	-1.740000000000000e+00
	9.962343231566753e-16
	0.000000000000000e+00
	0.000000000000000e+00
	0.000000000000000e+00
	4.305376505935870e-02
	-1.740000000000000e+00
	7.695458201730494e-01
	0.000000000000000e+00
	0.000000000000000e+00
	0.000000000000000e+00
	3.860784231252958e-02
	-1.740000000000000e+00
	5.306675321107350e-01
	0.000000000000000e+00
	0.000000000000000e+00
	0.000000000000000e+00
	3.860784231252958e-02
	-1.740000000000000e+00
	5.306675321107350e-01
	0.000000000000000e+00
	-1.740000000000000e+00
	2.597577221343400e-47
	3.896342589743909e-47
	3.896389074286291e-47
	3.673373272197684e-40
	3.824237357770858e-40
	7.195882458822194e-40
	3.673373274212374e-40
	3.824237362136019e-40
	7.195882460501102e-40
	-3.259583194229614e-40
	0.000000000000000e+00

 7	-1.730000000000000e+00
	9.950016672827125e-16
	0.000000000000000e+00
	0.000000000000000e+00
	0.000000000000000e+00
	4.305376505935870e-02
	-1.730000000000000e+00
	7.695458201730494e-01
	0.000000000000000e+00
	0.000000000000000e+00
	0.000000000000000e+00
	3.860784231252958e-02
	-1.730000000000000e+00
	5.306675321107350e-01
	0.000000000000000e+00
	0.000000000000000e+00
	0.000000000000000e+00
	3.860784231252958e-02
	-1.730000000000000e+00
	5.306675321107350e-01
	0.000000000000000e+00
	-1.730000000000000e+00
	2.574882839660299e-47
	3.862301486461250e-47
	3.862347032519644e-47
	-2.843867912389702e-40
	-7.591122182921336e-41
	-7.772491518876971e-40
	-2.843867911381577e-40
	-7.591122174515106e-41
	-7.772491516693219e-40
	-1.087027660527710e-40
	0.000000000000000e+00

 8	-1.720000000000000e+00
	9.937597973684612e-16
	0.000000000000000e+00
	0.000000000000000e+00
	0.000000000000000e+00
	4.305376505935870e-02
	-1.720000000000000e+00
	7.695458201730494e-01
	0.000000000000000e+00
	0.000000000000000e+00
	0.000000000000000e+00
	3.860784231252958e-02
	-1.720000000000000e+00
	5.306675321107350e-01
	0.000000000000000e+00
	0.000000000000000e+00
	0.000000000000000e+00
	3.860784231252958e-02
	-1.720000000000000e+00
	5.306675321107350e-01
	0.000000000000000e+00
	-1.720000000000000e+00
	2.552287596478764e-47
	3.828408925177826e-47
	3.828453864258466e-47
	3.817127544739843e-40
	6.484298915227019e-40
	4.967083718992508e-40
	3.817127547763434e-40
	6.484298919090841e-40
	4.967083724199459e-40
	-7.504205644963991e-40
	0.000000000000000e+00

 9	-1.710000000000000e+00
	9.925086355294107e-16
	0.000000000000000e+00
	0.000000000000000e+00
	0.000000000000000e+00
	4.305376505935870e-02
	-1.710000000000000e+00
	7.695458201730494e-01
	0.000000000000000e+00
	0.000000000000000e+00
	0.000000000000000e+00
	3.860784231252958e-02
	-1.710000000000000e+00
	5.306675321107350e-01
	0.000000000000000e+00
	0.000000000000000e+00
	0.000000000000000e+00
	3.860784231252958e-02
	-1.710000000000000e+00
	5.306675321107350e-01
	0.000000000000000e+00
	-1.710000000000000e+00
	2.529792797821202e-47
	3.794666890593499e-47
	3.794711502870109e-47
	3.797629564974922e-40
	4.447096867686563e-40
	6.945791827238205e-40
	3.797629564974923e-40
	4.447096867686563e-40
	6.945791827238205e-40
	-4.179182630054568e-40
	0.000000000000000e+00

 10	-1.700000000000000e+00
	9.912481005646197e-16
	0.000000000000000e+00
	0.000000000000000e+00
	0.000000000000000e+00
	4.305376505935870e-02
	-1.700000000000000e+00
	7.695458201730494e-01
	0.000000000000000e+00
	0.000000000000000e+00
	0.000000000000000e+00
	3.860784231252958e-02
	-1.700000000000000e+00
	5.306675321107350e-01
	0.000000000000000e+00
	0.000000000000000e+00
	0.000000000000000e+00
	3.860784231252958e-02
	-1.700000000000000e+00
	5.306675321107350e-01
	0.000000000000000e+00
	-1.700000000000000e+00
	2.507396623255196e-47
	3.761072950062596e-47
	3.761116919702992e-47
	2.957412415675678e-40
	4.386900666723202e-41
	8.433547180354714e-40
	2.957412414666775e-40
	4.386900671736559e-41
	8.433547176826672e-40
	1.705626461527002e-40
	0.000000000000000e+00

 11	-1.690000000000000e+00
	9.899781076805303e-16
	0.000000000000000e+00
	0.000000000000000e+00
	0.000000000000000e+00
	4.305376505935870e-02
	-1.690000000000000e+00
	7.695458201730494e-01
	0.000000000000000e+00
	0.000000000000000e+00
	0.000000000000000e+00
	3.860784231252958e-02
	-1.690000000000000e+00
	5.306675321107350e-01
	0.000000000000000e+00
	0.000000000000000e+00
	0.000000000000000e+00
	3.860784231252958e-02
	-1.690000000000000e+00
	5.306675321107350e-01
	0.000000000000000e+00
	-1.690000000000000e+00
	2.485100203307149e-47
	3.727628748434065e-47
	3.727671861487382e-47
	-6.965808124964156e-40
	-8.513500117603372e-40
	-1.238392425728910e-39
	-6.965808121940562e-40
	-8.513500113739546e-40
	-1.238392425208214e-39
	8.250177520777038e-40
	0.000000000000000e+00

 12	-1.680000000000000e+00
	9.886985681898653e-16
	0.000000000000000e+00
	0.000000000000000e+00
	0.000000000000000e+00
	4.305376505935870e-02
	-1.680000000000000e+00
	7.695458201730494e-01
	0.000000000000000e+00
	0.000000000000000e+00
	0.000000000000000e+00
	3.860784231252958e-02
	-1.680000000000000e+00
	5.306675321107350e-01
	0.000000000000000e+00
	0.000000000000000e+00
	0.000000000000000e+00
	3.860784231252958e-02
	-1.680000000000000e+00
	5.306675321107350e-01
	0.000000000000000e+00
	-1.680000000000000e+00
	2.462903977739958e-47
	3.694334587004160e-47
	3.694377346215712e-47
	-2.430841165424179e-40
	2.512939812223994e-41
	-7.543817477494935e-40
	-2.430841165424178e-40
	2.512939812223989e-41
	-7.543817477494935e-40
	-2.405411894824362e-40
	0.000000000000000e+00

 13	-1.670000000000000e+00
	9.874093891831836e-16
	0.000000000000000e+00
	0.000000000000000e+00
	0.000000000000000e+00
	4.305376505935870e-02
	-1.670000000000000e+00
	7.695458201730494e-01
	0.000000000000000e+00
	0.000000000000000e+00
	0.000000000000000e+00
	3.860784231252958e-02
	-1.670000000000000e+00
	5.306675321107350e-01
	0.000000000000000e+00
	0.000000000000000e+00
	0.000000000000000e+00
	3.860784231252958e-02
	-1.670000000000000e+00
	5.306675321107350e-01
	0.000000000000000e+00
	-1.670000000000000e+00
	2.440806567160735e-47
	3.661188891787745e-47
	3.661230809694461e-47
	5.374864526792754e-42
	-1.259945552868436e-40
	1.421191488672219e-40
	5.374864829074088e-42
	-1.259945547662653e-40
	1.421191492534875e-40
	2.110384586018537e-40
	0.000000000000000e+00

 14	-1.660000000000000e+00
	9.861104731703922e-16
	0.000000000000000e+00
	0.000000000000000e+00
	0.000000000000000e+00
	4.305376505935870e-02
	-1.660000000000000e+00
	7.695458201730494e-01
	0.000000000000000e+00
	0.000000000000000e+00
	0.000000000000000e+00
	3.860784231252958e-02
	-1.660000000000000e+00
	5.306675321107350e-01
	0.000000000000000e+00
	0.000000000000000e+00
	0.000000000000000e+00
	3.860784231252958e-02
	-1.660000000000000e+00
	5.306675321107350e-01
	0.000000000000000e+00
	-1.660000000000000e+00
	2.418809351846316e-47
	3.628193238487757e-47
	3.628234817051190e-47
	3.971363458447729e-40
	6.578821107445091e-40
	5.335269267898098e-40
	3.971363459455072e-40
	6.578821109627669e-40
	5.335269268737549e-40
	-7.532748590401759e-40
	0.000000000000000e+00

 15	-1.650000000000000e+00
	9.848017176892594e-16
	0.000000000000000e+00
	0.000000000000000e+00
	0.000000000000000e+00
	4.305376505935870e-02
	-1.650000000000000e+00
	7.695458201730494e-01
	0.000000000000000e+00
	0.000000000000000e+00
	0.000000000000000e+00
	3.860784231252958e-02
	-1.650000000000000e+00
	5.306675321107350e-01
	0.000000000000000e+00
	0.000000000000000e+00
	0.000000000000000e+00
	3.860784231252958e-02
	-1.650000000000000e+00
	5.306675321107350e-01
	0.000000000000000e+00
	-1.650000000000000e+00
	2.396911889370547e-47
	3.595347321029310e-47
	3.595388347082331e-47
	-1.044220458360646e-40
	1.757916497971404e-40
	-4.890577873053341e-40
	-1.044220458360645e-40
	1.757916497971404e-40
	-4.890577873053340e-40
	-3.739243842303359e-40
	0.000000000000000e+00

 16	-1.640000000000000e+00
	9.834830148776230e-16
	0.000000000000000e+00
	0.000000000000000e+00
	0.000000000000000e+00
	4.305376505935870e-02
	-1.640000000000000e+00
	7.695458201730494e-01
	0.000000000000000e+00
	0.000000000000000e+00
	0.000000000000000e+00
	3.860784231252958e-02
	-1.640000000000000e+00
	5.306675321107350e-01
	0.000000000000000e+00
	0.000000000000000e+00
	0.000000000000000e+00
	3.860784231252958e-02
	-1.640000000000000e+00
	5.306675321107350e-01
	0.000000000000000e+00
	-1.640000000000000e+00
	2.375113051428313e-47
	3.562649498483185e-47
	3.562689655801754e-47
	-5.224436412626747e-40
	-5.780233222831903e-40
	-9.893076015048336e-40
	-5.224436410611277e-40
	-5.780233219808700e-40
	-9.893076012025133e-40
	5.195544617769175e-40
	0.000000000000000e+00

 17	-1.630000000000000e+00
	9.821542510056640e-16
	0.000000000000000e+00
	0.000000000000000e+00
	0.000000000000000e+00
	4.305376505935870e-02
	-1.630000000000000e+00
	7.695458201730494e-01
	0.000000000000000e+00
	0.000000000000000e+00
	0.000000000000000e+00
	3.860784231252958e-02
	-1.630000000000000e+00
	5.306675321107350e-01
	0.000000000000000e+00
	0.000000000000000e+00
	0.000000000000000e+00
	3.860784231252958e-02
	-1.630000000000000e+00
	5.306675321107350e-01
	0.000000000000000e+00
	-1.630000000000000e+00
	2.353414292059599e-47
	3.530101491484017e-47
	3.530141384694779e-47
	2.013074553903271e-40
	-1.620896350447093e-41
	6.201313296754521e-40
	2.013074553903271e-40
	-1.620896350447093e-41
	6.201313296754521e-40
	1.916548126356255e-40
	0.000000000000000e+00

 18	-1.620000000000000e+00
	9.808153059642013e-16
	0.000000000000000e+00
	0.000000000000000e+00
	0.000000000000000e+00
	4.305376505935870e-02
	-1.620000000000000e+00
	7.695458201730494e-01
	0.000000000000000e+00
	0.000000000000000e+00
	0.000000000000000e+00
	3.860784231252958e-02
	-1.620000000000000e+00
	5.306675321107350e-01
	0.000000000000000e+00
	0.000000000000000e+00
	0.000000000000000e+00
	3.860784231252958e-02
	-1.620000000000000e+00
	5.306675321107350e-01
	0.000000000000000e+00
	-1.620000000000000e+00
	2.331815345195385e-47
	3.497703336275137e-47
	3.497742699311019e-47
	-4.725991092622692e-40
	-7.568215891519083e-40
	-6.609757386348993e-40
	-4.725991092622692e-40
	-7.568215891519081e-40
	-6.609757386348994e-40
	8.536561357240336e-40
	0.000000000000000e+00

 19	-1.610000000000000e+00
	9.794660527045394e-16
	0.000000000000000e+00
	0.000000000000000e+00
	0.000000000000000e+00
	4.305376505935870e-02
	-1.610000000000000e+00
	7.695458201730494e-01
	0.000000000000000e+00
	0.000000000000000e+00
	0.000000000000000e+00
	3.860784231252958e-02
	-1.610000000000000e+00
	5.306675321107350e-01
	0.000000000000000e+00
	0.000000000000000e+00
	0.000000000000000e+00
	3.860784231252958e-02
	-1.610000000000000e+00
	5.306675321107350e-01
	0.000000000000000e+00
	-1.610000000000000e+00
	2.310315961134530e-47
	3.465454547214969e-47
	3.465493336188619e-47
	3.756949283835351e-40
	4.628496239493817e-40
	6.642351612012236e-40
	3.756949283835351e-40
	4.628496239493816e-40
	6.642351612012236e-40
	-4.510035429491559e-40
	0.000000000000000e+00

 20	-1.600000000000000e+00
	9.781063566249145e-16
	0.000000000000000e+00
	0.000000000000000e+00
	0.000000000000000e+00
	4.305376505935870e-02
	-1.600000000000000e+00
	7.695458201730494e-01
	0.000000000000000e+00
	0.000000000000000e+00
	0.000000000000000e+00
	3.860784231252958e-02
	-1.600000000000000e+00
	5.306675321107350e-01
	0.000000000000000e+00
	0.000000000000000e+00
	0.000000000000000e+00
	3.860784231252958e-02
	-1.600000000000000e+00
	5.306675321107350e-01
	0.000000000000000e+00
	-1.600000000000000e+00
	2.288916024092534e-47
	3.433354898902390e-47
	3.433393173375211e-47
	7.342433687431680e-41
	-4.332608062520950e-41
	2.635990912481599e-40
	7.342433687431682e-41
	-4.332608062520948e-41
	2.635990912481599e-40
	1.312627275532877e-40
	0.000000000000000e+00

 21	-1.590000000000000e+00
	9.767360748980258e-16
	0.000000000000000e+00
	0.000000000000000e+00
	0.000000000000000e+00
	4.305376505935870e-02
	-1.590000000000000e+00
	7.695458201730494e-01
	0.000000000000000e+00
	0.000000000000000e+00
	0.000000000000000e+00
	3.860784231252958e-02
	-1.590000000000000e+00
	5.306675321107350e-01
	0.000000000000000e+00
	0.000000000000000e+00
	0.000000000000000e+00
	3.860784231252958e-02
	-1.590000000000000e+00
	5.306675321107350e-01
	0.000000000000000e+00
	-1.590000000000000e+00
	2.267615650295853e-47
	3.401404617597388e-47
	3.401442333290170e-47
	1.181048451357730e-40
	2.939419812683900e-40
	6.037255413892902e-41
	1.181048450349606e-40
	2.939419811843277e-40
	6.037255392055413e-41
	-3.852188771937791e-40
	0.000000000000000e+00

 22	-1.580000000000000e+00
	9.753550557335535e-16
	0.000000000000000e+00
	0.000000000000000e+00
	0.000000000000000e+00
	4.305376505935870e-02
	-1.580000000000000e+00
	7.695458201730494e-01
	0.000000000000000e+00
	0.000000000000000e+00
	0.000000000000000e+00
	3.860784231252958e-02
	-1.580000000000000e+00
	5.306675321107350e-01
	0.000000000000000e+00
	0.000000000000000e+00
	0.000000000000000e+00
	3.860784231252958e-02
	-1.580000000000000e+00
	5.306675321107350e-01
	0.000000000000000e+00
	-1.580000000000000e+00
	2.246414722611269e-47
	3.369603476071673e-47
	3.369640691762133e-47
	7.647311248543539e-41
	2.527372581794802e-40
	-2.331792072317398e-41
	7.647311258624785e-41
	2.527372582635426e-40
	-2.331792050479900e-41
	-3.517811520937841e-40
	0.000000000000000e+00

 23	-1.570000000000000e+00
	9.739631375688817e-16
	0.000000000000000e+00
	0.000000000000000e+00
	0.000000000000000e+00
	4.305376505935870e-02
	-1.570000000000000e+00
	7.695458201730494e-01
	0.000000000000000e+00
	0.000000000000000e+00
	0.000000000000000e+00
	3.860784231252958e-02
	-1.570000000000000e+00
	5.306675321107350e-01
	0.000000000000000e+00
	0.000000000000000e+00
	0.000000000000000e+00
	3.860784231252958e-02
	-1.570000000000000e+00
	5.306675321107350e-01
