Title: ** sch_path: /foss/designs/daci2025/tp1/tp1_1.sch
Date: Sun Jun 29 21:57:58  2025
Command: ngspice-44.2, Build Tue Mar 18 10:43:20 UTC 2025
Plotname: DC transfer characteristic
Flags: real
No. Variables: 33
No. Points: 181
Variables:
	0	v(v-sweep)	voltage
	1	@m.xm1.msky130_fd_pr__nfet_01v8[cgg]	capacitance
	2	@m.xm1.msky130_fd_pr__nfet_01v8[gm]	admittance
	3	i(@m.xm1.msky130_fd_pr__nfet_01v8[id])	current
	4	v(@m.xm1.msky130_fd_pr__nfet_01v8[vds])	voltage
	5	v(@m.xm1.msky130_fd_pr__nfet_01v8[vdsat])	voltage
	6	v(@m.xm1.msky130_fd_pr__nfet_01v8[vgs])	voltage
	7	v(@m.xm1.msky130_fd_pr__nfet_01v8[vth])	voltage
	8	@m.xm2.msky130_fd_pr__nfet_01v8[gm]	admittance
	9	i(@m.xm2.msky130_fd_pr__nfet_01v8[id])	current
	10	v(@m.xm2.msky130_fd_pr__nfet_01v8[vds])	voltage
	11	v(@m.xm2.msky130_fd_pr__nfet_01v8[vdsat])	voltage
	12	v(@m.xm2.msky130_fd_pr__nfet_01v8[vgs])	voltage
	13	v(@m.xm2.msky130_fd_pr__nfet_01v8[vth])	voltage
	14	@m.xm3.msky130_fd_pr__nfet_01v8[gm]	admittance
	15	i(@m.xm3.msky130_fd_pr__nfet_01v8[id])	current
	16	v(@m.xm3.msky130_fd_pr__nfet_01v8[vds])	voltage
	17	v(@m.xm3.msky130_fd_pr__nfet_01v8[vdsat])	voltage
	18	v(@m.xm3.msky130_fd_pr__nfet_01v8[vgs])	voltage
	19	v(@m.xm3.msky130_fd_pr__nfet_01v8[vth])	voltage
	20	v(d)	voltage
	21	v(g)	voltage
	22	v(m.xm1.msky130_fd_pr__nfet_01v8#body)	voltage
	23	v(m.xm1.msky130_fd_pr__nfet_01v8#dbody)	voltage
	24	v(m.xm1.msky130_fd_pr__nfet_01v8#sbody)	voltage
	25	v(m.xm2.msky130_fd_pr__nfet_01v8#body)	voltage
	26	v(m.xm2.msky130_fd_pr__nfet_01v8#dbody)	voltage
	27	v(m.xm2.msky130_fd_pr__nfet_01v8#sbody)	voltage
	28	v(m.xm3.msky130_fd_pr__nfet_01v8#body)	voltage
	29	v(m.xm3.msky130_fd_pr__nfet_01v8#dbody)	voltage
	30	v(m.xm3.msky130_fd_pr__nfet_01v8#sbody)	voltage
	31	i(vds)	current
	32	i(vgs)	current
Values:
 0	0.000000000000000e+00
	3.845297307652344e-16
	6.003660922828648e-12
	2.360441523639812e-13
	1.799999999999341e+00
	4.305366463122014e-02
	-6.845280418891709e-14
	7.692676641888118e-01
	1.252643917963105e-09
	4.593714856248129e-11
	1.799999999999941e+00
	3.860786814963225e-02
	-1.665221635416065e-14
	5.306675321046327e-01
	3.131609794907763e-11
	1.148428714062032e-12
	1.799999999999941e+00
	3.860786814963225e-02
	-1.665221635416065e-14
	5.306675321046327e-01
	1.800000000000000e+00
	0.000000000000000e+00
	2.251934083429209e-11
	5.628983522369836e-11
	1.125967041685617e-11
	2.276112164838896e-11
	5.686959192893060e-11
	1.138056082374418e-11
	2.276112164838896e-11
	5.686959192893061e-11
	1.138056082374418e-11
	-1.235003210808827e-10
	0.000000000000000e+00

 1	1.000000000000000e-02
	3.829687528743835e-16
	7.742294972589474e-12
	3.044058721675251e-13
	1.799999999999301e+00
	4.305366480588361e-02
	9.999999999911722e-03
	7.692676641888154e-01
	1.645195014822284e-09
	6.033731446067535e-11
	1.799999999999930e+00
	3.860787624897186e-02
	9.999999999978127e-03
	5.306675321046327e-01
	4.112987537055710e-11
	1.508432861516884e-12
	1.799999999999930e+00
	3.860787624897186e-02
	9.999999999978127e-03
	5.306675321046327e-01
	1.800000000000000e+00
	1.000000000000000e-02
	2.252057413608655e-11
	5.629045187459507e-11
	1.126028706775389e-11
	2.276632725012371e-11
	5.687219472979777e-11
	1.138316362461166e-11
	2.276632725012370e-11
	5.687219472979777e-11
	1.138316362461165e-11
	-1.390301207493394e-10
	0.000000000000000e+00

 2	2.000000000000000e-02
	3.814532720960948e-16
	9.984372280656791e-12
	3.925645885026651e-13
	1.799999999999250e+00
	4.305366503112823e-02
	1.999999999988616e-02
	7.692676641888199e-01
	2.160692902869664e-09
	7.924986234808633e-11
	1.799999999999916e+00
	3.860788688628672e-02
	1.999999999997127e-02
	5.306675321046327e-01
	5.401732257174159e-11
	1.981246558702158e-12
	1.799999999999917e+00
	3.860788688628672e-02
	1.999999999997127e-02
	5.306675321046327e-01
	1.800000000000000e+00
	2.000000000000000e-02
	2.252216459201930e-11
	5.629124710256080e-11
	1.126108229572092e-11
	2.277316405905737e-11
	5.687561313426435e-11
	1.138658202907862e-11
	2.277316405905736e-11
	5.687561313426435e-11
	1.138658202907862e-11
	-1.582174391501212e-10
	0.000000000000000e+00

 3	3.000000000000000e-02
	3.799844319450741e-16
	1.287564457823374e-11
	5.062526497876723e-13
	1.799999999999184e+00
	4.305366532159997e-02
	2.999999999985319e-02
	7.692676641888258e-01
	2.837608979823499e-09
	1.040879095093577e-10
	1.799999999999898e+00
	3.860790085637369e-02
	2.999999999996227e-02
	5.306675321046327e-01
	7.094022449558747e-11
	2.602197737733943e-12
	1.799999999999898e+00
	3.860790085637369e-02
	2.999999999996227e-02
	5.306675321046327e-01
	1.800000000000000e+00
	3.000000000000000e-02
	2.252421561837950e-11
	5.629227261574004e-11
	1.126210780890184e-11
	2.278214291070782e-11
	5.688010256008924e-11
	1.139107145490403e-11
	2.278214291070781e-11
	5.688010256008922e-11
	1.139107145490402e-11
	-1.847082486960971e-10
	0.000000000000000e+00

 4	4.000000000000000e-02
	3.785635414697790e-16
	1.660404785758617e-11
	6.528619197929464e-13
	1.799999999999099e+00
	4.305366569618518e-02
	3.999999999981067e-02
	7.692676641888329e-01
	3.726433614889282e-09
	1.367066659350318e-10
	1.799999999999875e+00
	3.860791920268711e-02
	3.999999999995044e-02
	5.306675321046327e-01
	9.316084037223205e-11
	3.417666648375795e-12
	1.799999999999875e+00
	3.860791920268711e-02
	3.999999999995044e-02
	5.306675321046327e-01
	1.800000000000000e+00
	4.000000000000000e-02
	2.252686057047939e-11
	5.629359509178890e-11
	1.126343028495285e-11
	2.279393445477312e-11
	5.688599833212143e-11
	1.139696722693691e-11
	2.279393445477312e-11
	5.688599833212145e-11
	1.139696722693691e-11
	-2.175948310423337e-10
	0.000000000000000e+00

 5	5.000000000000000e-02
	3.771920851919298e-16
	2.141190588115133e-11
	8.419240579655120e-13
	1.799999999998989e+00
	4.305366617923690e-02
	4.999999999975584e-02
	7.692676641888424e-01
	4.893425918285680e-09
	1.795415298383449e-10
	1.799999999999844e+00
	3.860794329499499e-02
	4.999999999993492e-02
	5.306675321046327e-01
	1.223356479571420e-10
	4.488538245958622e-12
	1.799999999999844e+00
	3.860794329499499e-02
	4.999999999993492e-02
	5.306675321046327e-01
	1.800000000000000e+00
	5.000000000000000e-02
	2.253027140730567e-11
	5.629530051020061e-11
	1.126513570336737e-11
	2.280941907568798e-11
	5.689374064257828e-11
	1.140470953739465e-11
	2.280941907568799e-11
	5.689374064257830e-11
	1.140470953739465e-11
	-2.614415350876698e-10
	0.000000000000000e+00

 6	6.000000000000000e-02
	3.758717336388958e-16
	2.761166141387413e-11
	1.085729728452307e-12
	1.799999999998848e+00
	4.305366680215784e-02
	5.999999999968515e-02
	7.692676641888547e-01
	6.425521339429975e-09
	2.357892085852771e-10
	1.799999999999803e+00
	3.860797493125159e-02
	5.999999999991453e-02
	5.306675321046327e-01
	1.606380334857494e-10
	5.894730214631928e-12
	1.799999999999803e+00
	3.860797493125159e-02
	5.999999999991453e-02
	5.306675321046327e-01
	1.800000000000000e+00
	6.000000000000000e-02
	2.253466986255840e-11
	5.629749973782516e-11
	1.126733493099551e-11
	2.282975236638726e-11
	5.690390728792717e-11
	1.141487618274470e-11
	2.282975236638726e-11
	5.690390728792718e-11
	1.141487618274469e-11
	-3.180726793061694e-10
	0.000000000000000e+00

 7	7.000000000000001e-02
	3.746043544938719e-16
	3.560615373011967e-11
	1.400126893010094e-12
	1.799999999998665e+00
	4.305366760543920e-02
	6.999999999959397e-02
	7.692676641888705e-01
	8.436764740313174e-09
	3.096452025258985e-10
	1.799999999999749e+00
	3.860801647116276e-02
	6.999999999988776e-02
	5.306675321046327e-01
	2.109191185078293e-10
	7.741130063147462e-12
	1.799999999999749e+00
	3.860801647116276e-02
	6.999999999988776e-02
	5.306675321046327e-01
	1.800000000000000e+00
	7.000000000000001e-02
	2.254034184650860e-11
	5.630033572979791e-11
	1.127017092297290e-11
	2.285645097650130e-11
	5.691725659298317e-11
	1.142822548780225e-11
	2.285645097650131e-11
	5.691725659298320e-11
	1.142822548780225e-11
	-3.966054151760545e-10
	0.000000000000000e+00

 8	8.000000000000000e-02
	3.733920243879127e-16
	4.591475446438171e-11
	1.805549934428526e-12
	1.799999999998430e+00
	4.305366864129077e-02
	7.999999999947639e-02
	7.692676641888911e-01
	1.107673371414574e-08
	4.066151266446135e-10
	1.799999999999679e+00
	3.860807101126845e-02
	7.999999999985261e-02
	5.306675321046327e-01
	2.769183428536434e-10
	1.016537816611534e-11
	1.799999999999679e+00
	3.860807101126845e-02
	7.999999999985261e-02
	5.306675321046327e-01
	1.800000000000000e+00
	8.000000000000000e-02
	2.254765601222619e-11
	5.630399281265367e-11
	1.127382800583464e-11
	2.289150515171105e-11
	5.693478368058674e-11
	1.144575257540782e-11
	2.289150515171105e-11
	5.693478368058674e-11
	1.144575257540782e-11
	-4.952358523269140e-10
	0.000000000000000e+00

 9	9.000000000000000e-02
	3.722370413555752e-16
	5.920705171116361e-11
	2.328346287513052e-12
	1.799999999998127e+00
	4.305366997702991e-02
	8.999999999932477e-02
	7.692676641889176e-01
	1.454156399615191e-08
	5.339226967692058e-10
	1.799999999999586e+00
	3.860814261439339e-02
	8.999999999980644e-02
	5.306675321046327e-01
	3.635390999037978e-10
	1.334806741923015e-11
	1.799999999999587e+00
	3.860814261439339e-02
	8.999999999980644e-02
	5.306675321046327e-01
	1.800000000000000e+00
	9.000000000000000e-02
	2.255708768908415e-11
	5.630870865107874e-11
	1.127854384426743e-11
	2.293752621537397e-11
	5.695779421241647e-11
	1.146876310724020e-11
	2.293752621537396e-11
	5.695779421241645e-11
	1.146876310724019e-11
	-6.267262264714191e-10
	0.000000000000000e+00

 10	9.999999999999999e-02
	3.711419379716560e-16
	7.634625853798135e-11
	3.002486483023480e-12
	1.799999999997735e+00
	4.305367169945090e-02
	9.999999999912927e-02
	7.692676641889515e-01
	1.908837323295462e-08
	7.010442076118748e-10
	1.799999999999465e+00
	3.860823661021896e-02
	9.999999999974586e-02
	5.306675321046327e-01
	4.772093308238655e-10
	1.752610519029687e-11
	1.799999999999465e+00
	3.860823661021896e-02
	9.999999999974586e-02
	5.306675321046327e-01
	1.800000000000000e+00
	9.999999999999999e-02
	2.256924973334050e-11
	5.631478967320186e-11
	1.128462486640051e-11
	2.299793977371939e-11
	5.698800099158691e-11
	1.149896988641411e-11
	2.299793977371939e-11
	5.698800099158691e-11
	1.149896988641411e-11
	-7.992966288838943e-10
	0.000000000000000e+00

 11	1.100000000000000e-01
	3.701094951797522e-16
	9.844514768563604e-11
	3.871768268415782e-12
	1.799999999997231e+00
	4.305367392045662e-02
	1.099999999988772e-01
	7.692676641889953e-01
	2.505411929124798e-08
	9.204084405300323e-10
	1.799999999999306e+00
	3.860835998886778e-02
	1.099999999996663e-01
	5.306675321046327e-01
	6.263529822811996e-10
	2.301021101325081e-11
	1.799999999999306e+00
	3.860835998886778e-02
	1.099999999996663e-01
	5.306675321046327e-01
	1.800000000000000e+00
	1.100000000000000e-01
	2.258493229225931e-11
	5.632263095265477e-11
	1.129246614586624e-11
	2.307723871853881e-11
	5.702765046399364e-11
	1.153861935882540e-11
	2.307723871853879e-11
	5.702765046399363e-11
	1.153861935882539e-11
	-1.023901852192921e-09
	0.000000000000000e+00

 12	1.200000000000000e-01
	3.691427568134457e-16
	1.269381188707172e-10
	4.992657341800256e-12
	1.799999999996581e+00
	4.305367678431607e-02
	1.199999999985521e-01
	7.692676641890519e-01
	3.288023963579862e-08
	1.208312786218486e-09
	1.799999999999097e+00
	3.860852191605341e-02
	1.199999999995620e-01
	5.306675321046327e-01
	8.220059908949654e-10
	3.020781965546216e-11
	1.799999999999097e+00
	3.860852191605341e-02
	1.199999999995620e-01
	5.306675321046327e-01
	1.800000000000000e+00
	1.200000000000000e-01
	2.260515405323591e-11
	5.633274183313469e-11
	1.130257702636270e-11
	2.318131438264476e-11
	5.707968829604271e-11
	1.159065719088045e-11
	2.318131438264476e-11
	5.707968829604271e-11
	1.159065719088045e-11
	-1.320608511434784e-09
	0.000000000000000e+00

 13	1.300000000000000e-01
	3.682450447971619e-16
	1.636740396228196e-10
	6.437948255997737e-12
	1.799999999995743e+00
	4.305368047701872e-02
	1.299999999981330e-01
	7.692676641891246e-01
	4.314481886262226e-08
	1.586121750944232e-09
	1.799999999998824e+00
	3.860873440695155e-02
	1.299999999994250e-01
	5.306675321046327e-01
	1.078620471565557e-09
	3.965304377360580e-11
	1.799999999998824e+00
	3.860873440695155e-02
	1.299999999994250e-01
	5.306675321046327e-01
	1.800000000000000e+00
	1.300000000000000e-01
	2.263122828942871e-11
	5.634577895122027e-11
	1.131561414446962e-11
	2.331788976198443e-11
	5.714797598570742e-11
	1.165894488055301e-11
	2.331788976198443e-11
	5.714797598570742e-11
	1.165894488055300e-11
	-1.709499208857324e-09
	0.000000000000000e+00

 14	1.400000000000000e-01
	3.674199749953972e-16
	2.110358300982816e-10
	8.301481828963306e-12
	1.799999999994661e+00
	4.305368523832669e-02
	1.399999999975926e-01
	7.692676641892185e-01
	5.660454711517230e-08
	2.081833956184292e-09
	1.799999999998464e+00
	3.860901320718053e-02
	1.399999999992453e-01
	5.306675321046347e-01
	1.415113677879308e-09
	5.204584890460730e-11
	1.799999999998464e+00
	3.860901320718053e-02
	1.399999999992453e-01
	5.306675321046347e-01
	1.800000000000000e+00
	1.400000000000000e-01
	2.266484796557323e-11
	5.636258878927859e-11
	1.133242398255544e-11
	2.349708592281635e-11
	5.723757406611664e-11
	1.174854296097254e-11
	2.349708592281634e-11
	5.723757406611663e-11
	1.174854296097253e-11
	-2.219771921829761e-09
	0.000000000000000e+00

 15	1.500000000000000e-01
	3.666714736553109e-16
	2.720944701152556e-10
	1.070422328477134e-11
	1.799999999993267e+00
	4.305369137730463e-02
	1.499999999968958e-01
	7.692676641893397e-01
	7.424939393269511e-08
	2.732129541272748e-09
	1.799999999997993e+00
	3.860937894370799e-02
	1.499999999990096e-01
	5.306675321046347e-01
	1.856234848317378e-09
	6.830323853181871e-11
	1.799999999997993e+00
	3.860937894370799e-02
	1.499999999990096e-01
	5.306675321046347e-01
	1.800000000000000e+00
	1.500000000000000e-01
	2.270819539239145e-11
	5.638426250266973e-11
	1.135409769598203e-11
	2.373216203173929e-11
	5.735511212056927e-11
	1.186608101543869e-11
	2.373216203173929e-11
	5.735511212056928e-11
	1.186608101543869e-11
	-2.888835837211445e-09
	0.000000000000000e+00

 16	1.600000000000000e-01
	3.660037943578124e-16
	3.508072991875140e-10
	1.380209263889977e-11
	1.799999999991470e+00
	4.305369929232628e-02
	1.599999999959974e-01
	7.692676641894959e-01
	9.737376862616189e-08
	3.585043184672665e-09
	1.799999999997374e+00
	3.860985862717354e-02
	1.599999999987004e-01
	5.306675321046347e-01
	2.434344215654048e-09
	8.962607961681662e-11
	1.799999999997374e+00
	3.860985862717354e-02
	1.599999999987004e-01
	5.306675321046347e-01
	1.800000000000000e+00
	1.600000000000000e-01
	2.276408349275685e-11
	5.641220655282925e-11
	1.138204174618728e-11
	2.404048147415559e-11
	5.750927184176583e-11
	1.202024073665299e-11
	2.404048147415559e-11
	5.750927184176583e-11
	1.202024073665298e-11
	-3.766871259358595e-09
	0.000000000000000e+00

 17	1.700000000000000e-01
	3.654215353554905e-16
	4.522732934332688e-10
	1.779605103190506e-11
	1.799999999989152e+00
	4.305370949684468e-02
	1.699999999948392e-01
	7.692676641896973e-01
	1.276690168789204e-07
	4.703450847780596e-09
	1.799999999996562e+00
	3.861048761108025e-02
	1.699999999982950e-01
	5.306675321046347e-01
	3.191725421973010e-09
	1.175862711945149e-10
	1.799999999996562e+00
	3.861048761108025e-02
	1.699999999982950e-01
	5.306675321046347e-01
	1.800000000000000e+00
	1.700000000000000e-01
	2.283613776673595e-11
	5.644823368978893e-11
	1.141806888320590e-11
	2.444477200985162e-11
	5.771141710959864e-11
	1.222238600450905e-11
	2.444477200985161e-11
	5.771141710959864e-11
	1.222238600450905e-11
	-4.918649487706261e-09
	0.000000000000000e+00

 18	1.800000000000000e-01
	3.649296571313132e-16
	5.830616099871810e-10
	2.294509084305311e-11
	1.799999999986165e+00
	4.305372265258171e-02
	1.799999999933460e-01
	7.692676641899567e-01
	1.673434713885632e-07
	6.169613414612853e-09
	1.799999999995500e+00
	3.861131214407509e-02
	1.799999999977635e-01
	5.306675321046347e-01
	4.183586784714079e-09
	1.542403353653213e-10
	1.799999999995500e+00
	3.861131214407509e-02
	1.799999999977635e-01
	5.306675321046347e-01
	1.800000000000000e+00
	1.800000000000000e-01
	2.292903064272776e-11
	5.649468012774631e-11
	1.146451532123928e-11
	2.497476778617491e-11
	5.797641499774038e-11
	1.248738389268126e-11
	2.497476778617490e-11
	5.797641499774037e-11
	1.248738389268125e-11
	-6.427197440928012e-09
	0.000000000000000e+00

 19	1.900000000000000e-01
	3.645334999592915e-16
	7.516343101241197e-10
	2.958296247353730e-11
	1.799999999982314e+00
	4.305373961226482e-02
	1.899999999914210e-01
	7.692676641902912e-01
	2.192780008305928e-07
	8.091090880720278e-09
	1.799999999994106e+00
	3.861239269074922e-02
	1.899999999970670e-01
	5.306675321046347e-01
	5.481950020764820e-09
	2.022772720180069e-10
	1.799999999994106e+00
	3.861239269074922e-02
	1.899999999970670e-01
	5.306675321046347e-01
	1.800000000000000e+00
	1.900000000000000e-01
	2.304878324039586e-11
	5.655455642653071e-11
	1.152439162012164e-11
	2.566934644687552e-11
	5.832370432806457e-11
	1.283467322304540e-11
	2.566934644687551e-11
	5.832370432806457e-11
	1.283467322304540e-11
	-8.404714257892465e-09
	0.000000000000000e+00

 20	2.000000000000000e-01
	3.642388011867608e-16
	9.688900862305027e-10
	3.813970815784468e-11
	1.799999999977349e+00
	4.305376147464492e-02
	1.999999999889395e-01
	7.692676641907227e-01
	2.872271673432531e-07
	1.060843061372621e-08
	1.799999999992280e+00
	3.861380824626428e-02
	1.999999999961545e-01
	5.306675321046366e-01
	7.180679183581327e-09
	2.652107653431554e-10
	1.799999999992280e+00
	3.861380824626428e-02
	1.999999999961545e-01
	5.306675321046366e-01
	1.800000000000000e+00
	2.000000000000000e-01
	2.320315385500961e-11
	5.663174173377357e-11
	1.160157692749079e-11
	2.657930695879931e-11
	5.877868458399227e-11
	1.328965347902543e-11
	2.657930695879929e-11
	5.877868458399227e-11
	1.328965347902542e-11
	-1.099442403784678e-08
	0.000000000000000e+00

 21	2.100000000000000e-01
	3.640517118872330e-16
	1.248863379093956e-09
	4.916937767665530e-11
	1.799999999970949e+00
	4.305378965530954e-02
	2.099999999857409e-01
	7.692676641912783e-01
	3.760788018319017e-07
	1.390514731874000e-08
	1.799999999989890e+00
	3.861566193313043e-02
	2.099999999949594e-01
	5.306675321046366e-01
	9.401970045797544e-09
	3.476286829685001e-10
	1.799999999989889e+00
	3.861566193313043e-02
	2.099999999949594e-01
	5.306675321046366e-01
	1.800000000000000e+00
	2.100000000000000e-01
	2.340213796615869e-11
	5.673123378926560e-11
	1.170106898314561e-11
	2.777097485406159e-11
	5.937451853157859e-11
	1.388548742668031e-11
	2.777097485406159e-11
	5.937451853157861e-11
	1.388548742668031e-11
	-1.438787222696192e-08
	0.000000000000000e+00

 22	2.200000000000001e-01
	3.639788124528104e-16
	1.609622927992875e-09
	6.338569102874006e-11
	1.799999999962701e+00
	4.305382597779910e-02
	2.199999999816182e-01
	7.692676641919950e-01
	4.921881444036998e-07
	1.822065654556611e-08
	1.799999999986760e+00
	3.861808824759685e-02
	2.199999999933951e-01
	5.306675321046385e-01
	1.230470361009250e-08
	4.555164136391527e-10
	1.799999999986760e+00
	3.861808824759685e-02
	2.199999999933951e-01
	5.306675321046385e-01
	1.800000000000000e+00
	2.200000000000001e-01
	2.365861161246242e-11
	5.685947061231111e-11
	1.182930580640094e-11
	2.933087341766616e-11
	6.015446781332228e-11
	1.466543670851368e-11
	2.933087341766616e-11
	6.015446781332227e-11
	1.466543670851368e-11
	-1.882588129831220e-08
	0.000000000000000e+00

 23	2.300000000000001e-01
	3.640271266062018e-16
	2.074426110061967e-09
	8.170791262882885e-11
	1.799999999952070e+00
	4.305387279081355e-02
	2.299999999763048e-01
	7.692676641929188e-01
	6.438067899801557e-07
	2.386700483218797e-08
	1.799999999982665e+00
	3.862126242174922e-02
	2.299999999913483e-01
	5.306675321046403e-01
	1.609516974950389e-08
	5.966751208046992e-10
	1.799999999982665e+00
	3.862126242174922e-02
	2.299999999913483e-01
	5.306675321046403e-01
	1.800000000000000e+00
	2.300000000000001e-01
	2.398915898449233e-11
	5.702474429818900e-11
	1.199457949254924e-11
	3.137176437318628e-11
	6.117491329100561e-11
	1.568588218631441e-11
