Title: ** sch_path: /foss/designs/daci2025/tp1/tp1_1.sch
Date: Sun Jun 29 21:57:58  2025
Command: ngspice-44.2, Build Tue Mar 18 10:43:20 UTC 2025
Plotname: DC transfer characteristic
Flags: real
No. Variables: 33
No. Points: 1267
Variables:
	0	v(v-sweep)	voltage
	1	@m.xm1.msky130_fd_pr__nfet_01v8[cgg]	capacitance
	2	@m.xm1.msky130_fd_pr__nfet_01v8[gm]	admittance
	3	i(@m.xm1.msky130_fd_pr__nfet_01v8[id])	current
	4	v(@m.xm1.msky130_fd_pr__nfet_01v8[vds])	voltage
	5	v(@m.xm1.msky130_fd_pr__nfet_01v8[vdsat])	voltage
	6	v(@m.xm1.msky130_fd_pr__nfet_01v8[vgs])	voltage
	7	v(@m.xm1.msky130_fd_pr__nfet_01v8[vth])	voltage
	8	@m.xm2.msky130_fd_pr__nfet_01v8[gm]	admittance
	9	i(@m.xm2.msky130_fd_pr__nfet_01v8[id])	current
	10	v(@m.xm2.msky130_fd_pr__nfet_01v8[vds])	voltage
	11	v(@m.xm2.msky130_fd_pr__nfet_01v8[vdsat])	voltage
	12	v(@m.xm2.msky130_fd_pr__nfet_01v8[vgs])	voltage
	13	v(@m.xm2.msky130_fd_pr__nfet_01v8[vth])	voltage
	14	@m.xm3.msky130_fd_pr__nfet_01v8[gm]	admittance
	15	i(@m.xm3.msky130_fd_pr__nfet_01v8[id])	current
	16	v(@m.xm3.msky130_fd_pr__nfet_01v8[vds])	voltage
	17	v(@m.xm3.msky130_fd_pr__nfet_01v8[vdsat])	voltage
	18	v(@m.xm3.msky130_fd_pr__nfet_01v8[vgs])	voltage
	19	v(@m.xm3.msky130_fd_pr__nfet_01v8[vth])	voltage
	20	v(d)	voltage
	21	v(g)	voltage
	22	v(m.xm1.msky130_fd_pr__nfet_01v8#body)	voltage
	23	v(m.xm1.msky130_fd_pr__nfet_01v8#dbody)	voltage
	24	v(m.xm1.msky130_fd_pr__nfet_01v8#sbody)	voltage
	25	v(m.xm2.msky130_fd_pr__nfet_01v8#body)	voltage
	26	v(m.xm2.msky130_fd_pr__nfet_01v8#dbody)	voltage
	27	v(m.xm2.msky130_fd_pr__nfet_01v8#sbody)	voltage
	28	v(m.xm3.msky130_fd_pr__nfet_01v8#body)	voltage
	29	v(m.xm3.msky130_fd_pr__nfet_01v8#dbody)	voltage
	30	v(m.xm3.msky130_fd_pr__nfet_01v8#sbody)	voltage
	31	i(vds)	current
	32	i(vgs)	current
Values:
 0	0.000000000000000e+00
	3.851790488874281e-16
	0.000000000000000e+00
	0.000000000000000e+00
	7.171534400300838e-50
	4.305376535074321e-02
	5.295890162060975e-50
	7.695458201730494e-01
	0.000000000000000e+00
	0.000000000000000e+00
	-2.664270928841554e-42
	3.860786814978880e-02
	-1.404869586588957e-42
	5.306675321107350e-01
	0.000000000000000e+00
	0.000000000000000e+00
	-2.664270928841553e-42
	3.860786814978880e-02
	-1.404869586588956e-42
	5.306675321107350e-01
	0.000000000000000e+00
	0.000000000000000e+00
	1.474243932607802e-48
	1.922290339496136e-48
	2.500441458327270e-48
	-1.254036589043844e-40
	-4.272363726291554e-40
	5.102539591600213e-41
	-1.254036589043843e-40
	-4.272363726291552e-40
	5.102539591600221e-41
	-3.561065864235769e-39
	0.000000000000000e+00

 1	1.000000000000000e-02
	3.846167718646980e-16
	1.439644891179416e-13
	5.409631270614290e-15
	9.999999999993875e-03
	4.305376478995849e-02
	-1.568793068497037e-15
	7.695442748620227e-01
	3.615138758035348e-10
	1.325749602690921e-11
	9.999999999990171e-03
	3.860786814978745e-02
	-4.805842309756641e-15
	5.306675321106853e-01
	9.037846895088371e-12
	3.314374006727303e-13
	9.999999999990171e-03
	3.860786814978745e-02
	-4.805842309756642e-15
	5.306675321106853e-01
	1.000000000000000e-02
	0.000000000000000e+00
	1.288986653057262e-13
	3.222466632659443e-13
	6.444933265123439e-14
	1.882050593590177e-13
	4.705126484010827e-13
	9.410252967597047e-14
	1.882050593590177e-13
	4.705126484010827e-13
	9.410252967597046e-14
	-1.422374718007546e-11
	0.000000000000000e+00

 2	2.000000000000000e-02
	3.843694578419045e-16
	2.540538735845883e-13
	9.548836708833932e-15
	1.999999999998851e-02
	4.305376422918657e-02
	-2.769162645599587e-15
	7.695427295509970e-01
	6.143675066009385e-10
	2.253018327622445e-11
	1.999999999998325e-02
	3.860786814978624e-02
	-8.167191437635313e-15
	5.306675321106407e-01
	1.535918766502346e-11
	5.632545819056112e-13
	1.999999999998325e-02
	3.860786814978624e-02
	-8.167191437635311e-15
	5.306675321106407e-01
	2.000000000000000e-02
	0.000000000000000e+00
	2.567895608864389e-13
	6.419739022193513e-13
	1.283947804399655e-13
	3.600721824949760e-13
	9.001804562442501e-13
	1.800360912406776e-13
	3.600721824949760e-13
	9.001804562442503e-13
	1.800360912406776e-13
	-2.431790879775519e-11
	0.000000000000000e+00

 3	3.000000000000000e-02
	3.842401565215311e-16
	3.351010173177572e-13
	1.259832260686982e-14
	2.999999999998379e-02
	4.305376366842738e-02
	-3.653513556048830e-15
	7.695411842399709e-01
	7.779502151349411e-10
	2.852911158886700e-11
	2.999999999997871e-02
	3.860786814978608e-02
	-1.034180295097002e-14
	5.306675321105997e-01
	1.944875537837353e-11
	7.132277897216750e-13
	2.999999999997871e-02
	3.860786814978608e-02
	-1.034180295097002e-14
	5.306675321105997e-01
	3.000000000000000e-02
	0.000000000000000e+00
	3.839331861018280e-13
	9.598329652594475e-13
	1.919665930460363e-13
	5.198245781617743e-13
	1.299561445414325e-12
	2.599122890709978e-13
	5.198245781617743e-13
	1.299561445414325e-12
	2.599122890709978e-13
	-3.097543055385898e-11
	0.000000000000000e+00

 4	4.000000000000000e-02
	3.841647994437631e-16
	3.935596793030592e-13
	1.479993749547073e-14
	3.999999999997957e-02
	4.305376310768112e-02
	-4.291981873761918e-15
	7.695396389289452e-01
	8.767919346553348e-10
	3.215384802324211e-11
	3.999999999997591e-02
	3.860786814978501e-02
	-1.165576990843270e-14
	5.306675321105597e-01
	2.191979836638337e-11
	8.038462005810528e-13
	3.999999999997591e-02
	3.860786814978501e-02
	-1.165576990843270e-14
	5.306675321105597e-01
	4.000000000000000e-02
	0.000000000000000e+00
	5.105227035830487e-13
	1.276306758964122e-12
	2.552613517850237e-13
	6.705937938450257e-13
	1.676484484625388e-12
	3.352968969096884e-13
	6.705937938450257e-13
	1.676484484625388e-12
	3.352968969096883e-13
	-3.521621882995873e-11
	0.000000000000000e+00

 5	5.000000000000000e-02
	3.841175789939193e-16
	4.363625641246191e-13
	1.641379646549180e-14
	4.999999999997571e-02
	4.305376254694766e-02
	-4.760000975086846e-15
	7.695380936179192e-01
	9.344834005957803e-10
	3.426951651969066e-11
	4.999999999997421e-02
	3.860786814978394e-02
	-1.242269973839694e-14
	5.306675321105196e-01
	2.336208501489451e-11
	8.567379129922665e-13
	4.999999999997421e-02
	3.860786814978394e-02
	-1.242269973839694e-14
	5.306675321105196e-01
	5.000000000000000e-02
	0.000000000000000e+00
	6.367013451680566e-13
	1.591753362928264e-12
	3.183506725759057e-13
	8.147019003269359e-13
	2.036754750832988e-12
	4.073509501478188e-13
	8.147019003269359e-13
	2.036754750832988e-12
	4.073509501478187e-13
	-3.787897773221971e-11
	0.000000000000000e+00

 6	6.000000000000000e-02
	3.840864723562998e-16
	4.693527375735721e-13
	1.765928683090412e-14
	5.999999999997208e-02
	4.305376198622705e-02
	-5.121193181075218e-15
	7.695365483068938e-01
	9.684355649043893e-10
	3.551461432215343e-11
	5.999999999997317e-02
	3.860786814978296e-02
	-1.287404769179129e-14
	5.306675321104835e-01
	2.421088912260973e-11
	8.878653580538358e-13
	5.999999999997317e-02
	3.860786814978296e-02
	-1.287404769179129e-14
	5.306675321104835e-01
	6.000000000000000e-02
	0.000000000000000e+00
	7.625753185600799e-13
	1.906438296409943e-12
	3.812876592702965e-13
	9.538707340932422e-13
	2.384676835251493e-12
	4.769353670282325e-13
	9.538707340932422e-13
	2.384676835251492e-12
	4.769353670282324e-13
	-3.957498218021271e-11
	0.000000000000000e+00

 7	7.000000000000001e-02
	3.840652603805016e-16
	4.965436484990900e-13
	1.868716645723921e-14
	6.999999999996855e-02
	4.305376142551938e-02
	-5.419278272731183e-15
	7.695350029958677e-01
	9.892409248761136e-10
	3.627759095907478e-11
	6.999999999997245e-02
	3.860786814978199e-02
	-1.315062672267682e-14
	5.306675321104471e-01
	2.473102312190284e-11
	9.069397739768694e-13
	6.999999999997245e-02
	3.860786814978199e-02
	-1.315062672267682e-14
	5.306675321104471e-01
	7.000000000000001e-02
	0.000000000000000e+00
	8.882233777315976e-13
	2.220558444340357e-12
	4.441116888544358e-13
	1.089377052470345e-12
	2.723442631196923e-12
	5.446885262141102e-13
	1.089377052470345e-12
	2.723442631196923e-12
	5.446885262141102e-13
	-4.084449445329597e-11
	0.000000000000000e+00

 8	8.000000000000000e-02
	3.840504615824460e-16
	5.203574765321417e-13
	1.958844722689704e-14
	7.999999999996514e-02
	4.305376086482449e-02
	-5.680649695950725e-15
	7.695334576848424e-01
	1.002722230255766e-09
	3.677197902916510e-11
	7.999999999997193e-02
	3.860786814978102e-02
	-1.332984239808608e-14
	5.306675321104110e-01
	2.506805575639416e-11
	9.192994757291274e-13
	7.999999999997193e-02
	3.860786814978102e-02
	-1.332984239808608e-14
	5.306675321104110e-01
	8.000000000000000e-02
	0.000000000000000e+00
	1.013703919465454e-12
	2.534259798676616e-12
	5.068519597197456e-13
	1.222167582562716e-12
	3.055418956430473e-12
	6.110837912576718e-13
	1.222167582562716e-12
	3.055418956430474e-12
	6.110837912576718e-13
	-4.180111812246423e-11
	0.000000000000000e+00

 9	9.000000000000000e-02
	3.840400027823905e-16
	5.421778880082842e-13
	2.041513111468796e-14
	8.999999999996172e-02
	4.305376030414261e-02
	-5.920388023428854e-15
	7.695319123738165e-01
	1.011990505559020e-09
	3.711186638343792e-11
	8.999999999997153e-02
	3.860786814978009e-02
	-1.345305156401149e-14
	5.306675321103766e-01
	2.529976263897551e-11
	9.277966595859482e-13
	8.999999999997155e-02
	3.860786814978009e-02
	-1.345305156401149e-14
	5.306675321103766e-01
	9.000000000000000e-02
	0.000000000000000e+00
	1.139060245504263e-12
	2.847650613775255e-12
	5.695301227375327e-13
	1.352944331080483e-12
	3.382360827727476e-12
	6.764721655139692e-13
	1.352944331080483e-12
	3.382360827727477e-12
	6.764721655139693e-13
	-4.258726704620130e-11
	0.000000000000000e+00

 10	9.999999999999999e-02
	3.840325864986789e-16
	5.627926744424139e-13
	2.119683108435534e-14
	9.999999999995836e-02
	4.305375974347358e-02
	-6.147081014651142e-15
	7.695303670627912e-01
	1.018731585761142e-09
	3.735907615141791e-11
	9.999999999997118e-02
	3.860786814977917e-02
	-1.354266510490572e-14
	5.306675321103422e-01
	2.546828964402856e-11
	9.339769037854477e-13
	9.999999999997120e-02
	3.860786814977917e-02
	-1.354266510490571e-14
	5.306675321103422e-01
	9.999999999999999e-02
	0.000000000000000e+00
	1.264324464481792e-12
	3.160811161220696e-12
	6.321622322246812e-13
	1.482227842348126e-12
	3.705569605899141e-12
	7.411139211452328e-13
	1.482227842348126e-12
	3.705569605899141e-12
	7.411139211452327e-13
	-4.328809533049593e-11
	0.000000000000000e+00

 11	1.100000000000000e-01
	3.840273668177747e-16
	5.826614858064104e-13
	2.195082853739635e-14
	1.099999999999550e-01
	4.305375918281749e-02
	-6.365740276051780e-15
	7.695288217517653e-01
	1.023890163025718e-09
	3.754825218941492e-11
	1.099999999999709e-01
	3.860786814977825e-02
	-1.361124141868110e-14
	5.306675321103080e-01
	2.559725407564294e-11
	9.387063047353730e-13
	1.099999999999709e-01
	3.860786814977825e-02
	-1.361124141868110e-14
	5.306675321103080e-01
	1.100000000000000e-01
	0.000000000000000e+00
	1.389520385240372e-12
	3.473800963118760e-12
	6.947601926023551e-13
	1.610404104690027e-12
	4.026010261756431e-12
	8.052020523136465e-13
	1.610404104690028e-12
	4.026010261756432e-12
	8.052020523136466e-13
	-4.393196917362729e-11
	0.000000000000000e+00

 12	1.200000000000000e-01
	3.840237730161690e-16
	6.020624218772027e-13
	2.268758137727993e-14
	1.199999999999517e-01
	4.305375862217431e-02
	-6.579398599636753e-15
	7.695272764407400e-01
	1.028017141600499e-09
	3.769959731970553e-11
	1.199999999999706e-01
	3.860786814977733e-02
	-1.366610402841291e-14
	5.306675321102737e-01
	2.570042854001248e-11
	9.424899329926382e-13
	1.199999999999706e-01
	3.860786814977733e-02
	-1.366610402841291e-14
	5.306675321102737e-01
	1.200000000000000e-01
	0.000000000000000e+00
	1.514665662251914e-12
	3.786664155649230e-12
	7.573328311065109e-13
	1.737759331939581e-12
	4.344398329882834e-12
	8.688796659359021e-13
	1.737759331939581e-12
	4.344398329882836e-12
	8.688796659359023e-13
	-4.451905510904908e-11
	0.000000000000000e+00

 13	1.300000000000000e-01
	3.840214086593635e-16
	6.211704945934885e-13
	2.341367265166228e-14
	1.299999999999484e-01
	4.305375806154416e-02
	-6.789965069226368e-15
	7.695257311297147e-01
	1.031446872438558e-09
	3.782537289828531e-11
	1.299999999999704e-01
	3.860786814977640e-02
	-1.371169767564954e-14
	5.306675321102394e-01
	2.578617181096396e-11
	9.456343224571326e-13
	1.299999999999704e-01
	3.860786814977640e-02
	-1.371169767564954e-14
	5.306675321102394e-01
	1.300000000000000e-01
	0.000000000000000e+00
	1.639773386467007e-12
	4.099433466188579e-12
	8.198866932124428e-13
	1.864505754242752e-12
	4.661264385643272e-12
	9.322528770849782e-13
	1.864505754242752e-12
	4.661264385643272e-12
	9.322528770849782e-13
	-4.504918660330759e-11
	0.000000000000000e+00

 14	1.400000000000000e-01
	3.840199913868493e-16
	6.401001409379429e-13
	2.413340838431603e-14
	1.399999999999450e-01
	4.305375750092696e-02
	-6.998688431714682e-15
	7.695241858186889e-01
	1.034390007038398e-09
	3.793330396106254e-11
	1.399999999999702e-01
	3.860786814977549e-02
	-1.375082268590773e-14
	5.306675321102052e-01
	2.585975017595995e-11
	9.483325990265635e-13
	1.399999999999702e-01
	3.860786814977549e-02
	-1.375082268590773e-14
	5.306675321102052e-01
	1.400000000000000e-01
	0.000000000000000e+00
	1.764853264943908e-12
	4.412133162382445e-12
	8.824266324492787e-13
	1.990800742172176e-12
	4.977001855469332e-12
	9.954003710471898e-13
	1.990800742172176e-12
	4.977001855469331e-12
	9.954003710471894e-13
	-4.552253018985652e-11
	0.000000000000000e+00

 15	1.500000000000000e-01
	3.840193156521271e-16
	6.589288952974233e-13
	2.484970736902609e-14
	1.499999999999417e-01
	4.305375694032273e-02
	-7.206415137299327e-15
	7.695226405076636e-01
	1.036983848239617e-09
	3.802842569373117e-11
	1.499999999999699e-01
	3.860786814977456e-02
	-1.378530431400156e-14
	5.306675321101707e-01
	2.592459620599043e-11
	9.507106423432793e-13
	1.499999999999699e-01
	3.860786814977456e-02
	-1.378530431400156e-14
	5.306675321101707e-01
	1.500000000000000e-01
	0.000000000000000e+00
	1.889912495554103e-12
	4.724781238909548e-12
	9.449562477527618e-13
	2.116760987430712e-12
	5.291902468618163e-12
	1.058380493673963e-12
	2.116760987430711e-12
	5.291902468618163e-12
	1.058380493673963e-12
	-4.622313642954623e-11
	0.000000000000000e+00

 16	1.600000000000000e-01
	3.840192289316755e-16
	6.777110109898597e-13
	2.556461320682011e-14
	1.599999999999385e-01
	4.305375637973154e-02
	-7.413737830278314e-15
	7.695210951966384e-01
	1.039320658722294e-09
	3.811412156416425e-11
	1.599999999999698e-01
	3.860786814977462e-02
	-1.381636906703499e-14
	5.306675321101384e-01
	2.598301646805736e-11
	9.528530391041062e-13
	1.599999999999698e-01
	3.860786814977462e-02
	-1.381636906703499e-14
	5.306675321101384e-01
	1.600000000000000e-01
	0.000000000000000e+00
	2.014956415584399e-12
	5.037391038986900e-12
	1.007478207766296e-12
	2.242473017971387e-12
	5.606182544972340e-12
	1.121236508941811e-12
	2.242473017971387e-12
	5.606182544972341e-12
	1.121236508941811e-12
	-4.658262664491986e-11
	0.000000000000000e+00

 17	1.700000000000000e-01
	3.840196161107644e-16
	6.964855677787661e-13
	2.627959908415646e-14
	1.699999999999351e-01
	4.305375581915331e-02
	-7.621083734724578e-15
	7.695195498856132e-01
	1.041464144872940e-09
	3.819272782056610e-11
	1.699999999999695e-01
	3.860786814977370e-02
	-1.384486383498211e-14
	5.306675321101040e-01
	2.603660362182349e-11
	9.548181955141526e-13
	1.699999999999696e-01
	3.860786814977370e-02
	-1.384486383498211e-14
	5.306675321101040e-01
	1.700000000000000e-01
	0.000000000000000e+00
	2.139988982681231e-12
	5.349972456730593e-12
	1.069994491313098e-12
	2.368000995053924e-12
	5.920002487681169e-12
	1.184000497480594e-12
	2.368000995053924e-12
	5.920002487681170e-12
	1.184000497480594e-12
	-4.722644497689998e-11
	0.000000000000000e+00

 18	1.800000000000000e-01
	3.840203889840534e-16
	7.152814575519493e-13
	2.699575520272168e-14
	1.799999999999319e-01
	4.305375525858817e-02
	-7.828769009127214e-15
	7.695180045745876e-01
	1.043459375537347e-09
	3.826589723309003e-11
	1.799999999999694e-01
	3.860786814977278e-02
	-1.387138774702348e-14
	5.306675321100698e-01
	2.608648438843368e-11
	9.566474308272508e-13
	1.799999999999694e-01
	3.860786814977278e-02
	-1.387138774702347e-14
	5.306675321100698e-01
	1.800000000000000e-01
	0.000000000000000e+00
	2.265013131475222e-12
	5.662532828717186e-12
	1.132506565708480e-12
	2.493392494832682e-12
	6.233481237130547e-12
	1.246696247367490e-12
	2.493392494832682e-12
	6.233481237130547e-12
	1.246696247367490e-12
	-4.764277861113442e-11
	0.000000000000000e+00

 19	1.900000000000000e-01
	3.840214790414042e-16
	7.341205453139721e-13
	2.771390761444303e-14
	1.899999999999285e-01
	4.305375469803607e-02
	-8.037033208545125e-15
	7.695164592635623e-01
	1.045338933388133e-09
	3.833482467748192e-11
	1.899999999999692e-01
	3.860786814977098e-02
	-1.389637394561697e-14
	5.306675321100373e-01
	2.613347333470333e-11
	9.583706169370479e-13
	1.899999999999692e-01
	3.860786814977098e-02
	-1.389637394561696e-14
	5.306675321100373e-01
	1.900000000000000e-01
	0.000000000000000e+00
	2.390031038021524e-12
	5.975077595084553e-12
	1.195015518980017e-12
	2.618682795456392e-12
	6.546706988692300e-12
	1.309341397676863e-12
	2.618682795456392e-12
	6.546706988692301e-12
	1.309341397676863e-12
	-4.822975352425374e-11
	0.000000000000000e+00

 20	2.000000000000000e-01
	3.840228324141822e-16
	7.530197306157307e-13
	2.843469572199228e-14
	1.999999999999252e-01
	4.305375413749707e-02
	-8.246061759753123e-15
	7.695149139525371e-01
	1.047126836483826e-09
	3.840039094694271e-11
	1.999999999999690e-01
	3.860786814977099e-02
	-1.392014171829795e-14
	5.306675321100032e-01
	2.617817091209566e-11
	9.600097736735678e-13
	1.999999999999690e-01
	3.860786814977099e-02
	-1.392014171829794e-14
	5.306675321100032e-01
	2.000000000000000e-01
	0.000000000000000e+00
	2.515044315884707e-12
	6.287610789744126e-12
	1.257522157909995e-12
	2.743898055991395e-12
	6.859745140032288e-12
	1.371949027941885e-12
	2.743898055991394e-12
	6.859745140032286e-12
	1.371949027941884e-12
	-4.847600099111560e-11
	0.000000000000000e+00

 21	2.100000000000000e-01
	3.840244062727930e-16
	7.719923269506721e-13
	2.915862413754628e-14
	2.099999999999219e-01
	4.305375357697110e-02
	-8.456001000282502e-15
	7.695133686415119e-01
	1.048841101805258e-09
	3.846325676243406e-11
	2.099999999999689e-01
	3.860786814976912e-02
	-1.394293057641500e-14
	5.306675321099688e-01
	2.622102754513145e-11
	9.615814190608515e-13
	2.099999999999689e-01
	3.860786814976912e-02
	-1.394293057641499e-14
	5.306675321099688e-01
	2.100000000000000e-01
	0.000000000000000e+00
	2.640054161537500e-12
	6.600135403877723e-12
	1.320027080734778e-12
	2.869057673621959e-12
	7.172644184111177e-12
	1.434528836754688e-12
	2.869057673621958e-12
	7.172644184111176e-12
	1.434528836754688e-12
	-4.906275385962999e-11
	0.000000000000000e+00

 22	2.200000000000001e-01
	3.840261662178572e-16
	7.910490067358399e-13
	2.988609821039213e-14
	2.199999999999186e-01
	4.305375301645821e-02
	-8.666968481426515e-15
	7.695118233304864e-01
	1.050495459715775e-09
	3.852392564556293e-11
	2.199999999999687e-01
	3.860786814976919e-02
	-1.396492304655065e-14
	5.306675321099362e-01
	2.626238649289437e-11
	9.630981411390734e-13
	2.199999999999687e-01
	3.860786814976919e-02
	-1.396492304655065e-14
	5.306675321099362e-01
	2.200000000000001e-01
	0.000000000000000e+00
	2.765061462175246e-12
	6.912653655473699e-12
	1.382530731052037e-12
	2.994176031535652e-12
	7.485440078897885e-12
	1.497088015709056e-12
	2.994176031535652e-12
	7.485440078897885e-12
	1.497088015709056e-12
	-4.953593091272523e-11
	0.000000000000000e+00

 23	2.300000000000001e-01
	3.840280843636145e-16
	8.101984626606822e-13
	3.061744889094722e-14
	2.299999999999152e-01
	4.305375245595852e-02
	-8.879060178806207e-15
	7.695102780194614e-01
	1.052100524630275e-09
	3.858278684949224e-11
	2.299999999999685e-01
	3.860786814976733e-02
	-1.398626023297646e-14
	5.306675321099019e-01
	2.630251311575687e-11
	9.645696712373059e-13
	2.299999999999685e-01
	3.860786814976733e-02
	-1.398626023297646e-14
	5.306675321099019e-01
	2.300000000000001e-01
	0.000000000000000e+00
	2.890066875661317e-12
	7.225167189190489e-12
