Title: ** sch_path: /foss/designs/daci/tp1/tp1_1.sch
Date: Fri May 23 08:50:48  2025
Command: ngspice-44.2, Build Tue Mar 18 10:43:20 UTC 2025
Plotname: DC transfer characteristic
Flags: real
No. Variables: 33
No. Points: 361
Variables:
	0	v(v-sweep)	voltage
	1	@m.xm1.msky130_fd_pr__nfet_01v8[cgg]	capacitance
	2	@m.xm1.msky130_fd_pr__nfet_01v8[gm]	admittance
	3	i(@m.xm1.msky130_fd_pr__nfet_01v8[id])	current
	4	v(@m.xm1.msky130_fd_pr__nfet_01v8[vds])	voltage
	5	v(@m.xm1.msky130_fd_pr__nfet_01v8[vdsat])	voltage
	6	v(@m.xm1.msky130_fd_pr__nfet_01v8[vgs])	voltage
	7	v(@m.xm1.msky130_fd_pr__nfet_01v8[vth])	voltage
	8	@m.xm2.msky130_fd_pr__nfet_01v8[gm]	admittance
	9	i(@m.xm2.msky130_fd_pr__nfet_01v8[id])	current
	10	v(@m.xm2.msky130_fd_pr__nfet_01v8[vds])	voltage
	11	v(@m.xm2.msky130_fd_pr__nfet_01v8[vdsat])	voltage
	12	v(@m.xm2.msky130_fd_pr__nfet_01v8[vgs])	voltage
	13	v(@m.xm2.msky130_fd_pr__nfet_01v8[vth])	voltage
	14	@m.xm3.msky130_fd_pr__nfet_01v8[gm]	admittance
	15	i(@m.xm3.msky130_fd_pr__nfet_01v8[id])	current
	16	v(@m.xm3.msky130_fd_pr__nfet_01v8[vds])	voltage
	17	v(@m.xm3.msky130_fd_pr__nfet_01v8[vdsat])	voltage
	18	v(@m.xm3.msky130_fd_pr__nfet_01v8[vgs])	voltage
	19	v(@m.xm3.msky130_fd_pr__nfet_01v8[vth])	voltage
	20	v(d)	voltage
	21	v(g)	voltage
	22	v(m.xm1.msky130_fd_pr__nfet_01v8#body)	voltage
	23	v(m.xm1.msky130_fd_pr__nfet_01v8#dbody)	voltage
	24	v(m.xm1.msky130_fd_pr__nfet_01v8#sbody)	voltage
	25	v(m.xm2.msky130_fd_pr__nfet_01v8#body)	voltage
	26	v(m.xm2.msky130_fd_pr__nfet_01v8#dbody)	voltage
	27	v(m.xm2.msky130_fd_pr__nfet_01v8#sbody)	voltage
	28	v(m.xm3.msky130_fd_pr__nfet_01v8#body)	voltage
	29	v(m.xm3.msky130_fd_pr__nfet_01v8#dbody)	voltage
	30	v(m.xm3.msky130_fd_pr__nfet_01v8#sbody)	voltage
	31	i(vds)	current
	32	i(vgs)	current
Values:
 0	-1.800000000000000e+00
	2.184603144500711e-12
	0.000000000000000e+00
	0.000000000000000e+00
	0.000000000000000e+00
	4.064322659607881e-02
	-1.800000000000000e+00
	5.963899046517225e-01
	0.000000000000000e+00
	0.000000000000000e+00
	0.000000000000000e+00
	3.860784231252958e-02
	-1.800000000000000e+00
	5.306675321107350e-01
	0.000000000000000e+00
	0.000000000000000e+00
	0.000000000000000e+00
	3.860784231252958e-02
	-1.800000000000000e+00
	5.306675321107350e-01
	0.000000000000000e+00
	-1.800000000000000e+00
	-6.016814116292503e-41
	-3.037203412602428e-41
	-1.501323893627508e-40
	6.443216005767115e-41
	-1.861939458990474e-40
	3.794904260720609e-40
	6.443216005767115e-41
	-1.861939458990474e-40
	3.794904260720608e-40
	3.586531842109596e-40
	0.000000000000000e+00

 1	-1.790000000000000e+00
	2.182383070871621e-12
	0.000000000000000e+00
	0.000000000000000e+00
	0.000000000000000e+00
	4.064322659607881e-02
	-1.790000000000000e+00
	5.963899046517225e-01
	0.000000000000000e+00
	0.000000000000000e+00
	0.000000000000000e+00
	3.860784231252958e-02
	-1.790000000000000e+00
	5.306675321107350e-01
	0.000000000000000e+00
	0.000000000000000e+00
	0.000000000000000e+00
	3.860784231252958e-02
	-1.790000000000000e+00
	5.306675321107350e-01
	0.000000000000000e+00
	-1.790000000000000e+00
	1.421059543336082e-40
	7.079072848491790e-41
	3.555271345159068e-40
	5.028258045454145e-40
	5.196049746561659e-40
	9.888724389800778e-40
	5.028258045454144e-40
	5.196049746561658e-40
	9.888724389800775e-40
	-4.394154008398249e-40
	0.000000000000000e+00

 2	-1.780000000000000e+00
	2.180146395511817e-12
	0.000000000000000e+00
	0.000000000000000e+00
	0.000000000000000e+00
	4.064322659607881e-02
	-1.780000000000000e+00
	5.963899046517225e-01
	0.000000000000000e+00
	0.000000000000000e+00
	0.000000000000000e+00
	3.860784231252958e-02
	-1.780000000000000e+00
	5.306675321107350e-01
	0.000000000000000e+00
	0.000000000000000e+00
	0.000000000000000e+00
	3.860784231252958e-02
	-1.780000000000000e+00
	5.306675321107350e-01
	0.000000000000000e+00
	-1.780000000000000e+00
	6.666311313446051e-41
	-1.808090146452585e-41
	2.180702408679074e-40
	-1.437712138459510e-40
	-5.052288761963418e-42
	-4.262613527758896e-40
	-1.437712141986385e-40
	-5.052289324572877e-42
	-4.262613532713427e-40
	-2.734670891916676e-41
	0.000000000000000e+00

 3	-1.770000000000000e+00
	2.177893049658567e-12
	0.000000000000000e+00
	0.000000000000000e+00
	0.000000000000000e+00
	4.064322659607881e-02
	-1.770000000000000e+00
	5.963899046517225e-01
	0.000000000000000e+00
	0.000000000000000e+00
	0.000000000000000e+00
	3.860784231252958e-02
	-1.770000000000000e+00
	5.306675321107350e-01
	0.000000000000000e+00
	0.000000000000000e+00
	0.000000000000000e+00
	3.860784231252958e-02
	-1.770000000000000e+00
	5.306675321107350e-01
	0.000000000000000e+00
	-1.770000000000000e+00
	1.093536368820170e-42
	1.619735809731880e-41
	-1.291674899085829e-41
	-3.196325014756506e-40
	-5.436527180241211e-40
	-4.152447864028306e-40
	-3.196325015260568e-40
	-5.436527180661524e-40
	-4.152447865120180e-40
	6.044508625197668e-40
	0.000000000000000e+00

 4	-1.760000000000000e+00
	2.175622964750595e-12
	0.000000000000000e+00
	0.000000000000000e+00
	0.000000000000000e+00
	4.064322659607881e-02
	-1.760000000000000e+00
	5.963899046517225e-01
	0.000000000000000e+00
	0.000000000000000e+00
	0.000000000000000e+00
	3.860784231252958e-02
	-1.760000000000000e+00
	5.306675321107350e-01
	0.000000000000000e+00
	0.000000000000000e+00
	0.000000000000000e+00
	3.860784231252958e-02
	-1.760000000000000e+00
	5.306675321107350e-01
	0.000000000000000e+00
	-1.760000000000000e+00
	2.946941136002565e-40
	3.799193857531184e-40
	5.041629550476511e-40
	-1.016800524774516e-40
	2.285143521750966e-40
	-5.335545096074514e-40
	-1.016800525782639e-40
	2.285143520910344e-40
	-5.335545098258261e-40
	-8.302569069636195e-40
	0.000000000000000e+00

 5	-1.750000000000000e+00
	2.173336072435796e-12
	0.000000000000000e+00
	0.000000000000000e+00
	0.000000000000000e+00
	4.064322659607881e-02
	-1.750000000000000e+00
	5.963899046517225e-01
	0.000000000000000e+00
	0.000000000000000e+00
	0.000000000000000e+00
	3.860784231252958e-02
	-1.750000000000000e+00
	5.306675321107350e-01
	0.000000000000000e+00
	0.000000000000000e+00
	0.000000000000000e+00
	3.860784231252958e-02
	-1.750000000000000e+00
	5.306675321107350e-01
	0.000000000000000e+00
	-1.750000000000000e+00
	-1.280984267450114e-40
	-7.732498109674348e-41
	-3.069702991382908e-40
	1.817820345358459e-40
	3.788991105269117e-40
	1.664469930806259e-40
	1.817820345358458e-40
	3.788991105269116e-40
	1.664469930806259e-40
	-4.510920446085157e-40
	0.000000000000000e+00

 6	-1.740000000000000e+00
	2.171032304579078e-12
	0.000000000000000e+00
	0.000000000000000e+00
	0.000000000000000e+00
	4.064322659607881e-02
	-1.740000000000000e+00
	5.963899046517225e-01
	0.000000000000000e+00
	0.000000000000000e+00
	0.000000000000000e+00
	3.860784231252958e-02
	-1.740000000000000e+00
	5.306675321107350e-01
	0.000000000000000e+00
	0.000000000000000e+00
	0.000000000000000e+00
	3.860784231252958e-02
	-1.740000000000000e+00
	5.306675321107350e-01
	0.000000000000000e+00
	-1.740000000000000e+00
	-1.649062884660610e-40
	-1.919876603910780e-40
	-3.027312050071051e-40
	3.673373272197684e-40
	3.824237357770858e-40
	7.195882458822194e-40
	3.673373274212374e-40
	3.824237362136019e-40
	7.195882460501102e-40
	-1.507030925223011e-40
	0.000000000000000e+00

 7	-1.730000000000000e+00
	2.168711593270340e-12
	0.000000000000000e+00
	0.000000000000000e+00
	0.000000000000000e+00
	4.064322659607881e-02
	-1.730000000000000e+00
	5.963899046517225e-01
	0.000000000000000e+00
	0.000000000000000e+00
	0.000000000000000e+00
	3.860784231252958e-02
	-1.730000000000000e+00
	5.306675321107350e-01
	0.000000000000000e+00
	0.000000000000000e+00
	0.000000000000000e+00
	3.860784231252958e-02
	-1.730000000000000e+00
	5.306675321107350e-01
	0.000000000000000e+00
	-1.730000000000000e+00
	-3.884600518755015e-41
	-7.221005982161642e-41
	-4.432795574103404e-41
	-2.843867912389702e-40
	-7.591122182921336e-41
	-7.772491518876971e-40
	-2.843867911381577e-40
	-7.591122174515106e-41
	-7.772491516693219e-40
	-2.424347345405786e-41
	0.000000000000000e+00

 8	-1.720000000000000e+00
	2.166373870832596e-12
	0.000000000000000e+00
	0.000000000000000e+00
	0.000000000000000e+00
	4.064322659607881e-02
	-1.720000000000000e+00
	5.963899046517225e-01
	0.000000000000000e+00
	0.000000000000000e+00
	0.000000000000000e+00
	3.860784231252958e-02
	-1.720000000000000e+00
	5.306675321107350e-01
	0.000000000000000e+00
	0.000000000000000e+00
	0.000000000000000e+00
	3.860784231252958e-02
	-1.720000000000000e+00
	5.306675321107350e-01
	0.000000000000000e+00
	-1.720000000000000e+00
	9.873117352631212e-41
	1.190148555506958e-40
	1.771786650282406e-40
	3.817127544739843e-40
	6.484298915227019e-40
	4.967083718992508e-40
	3.817127547763434e-40
	6.484298919090841e-40
	4.967083724199459e-40
	-8.618593935411285e-40
	0.000000000000000e+00

 9	-1.710000000000000e+00
	2.164019069830252e-12
	0.000000000000000e+00
	0.000000000000000e+00
	0.000000000000000e+00
	4.064322659607881e-02
	-1.710000000000000e+00
	5.963899046517225e-01
	0.000000000000000e+00
	0.000000000000000e+00
	0.000000000000000e+00
	3.860784231252958e-02
	-1.710000000000000e+00
	5.306675321107350e-01
	0.000000000000000e+00
	0.000000000000000e+00
	0.000000000000000e+00
	3.860784231252958e-02
	-1.710000000000000e+00
	5.306675321107350e-01
	0.000000000000000e+00
	-1.710000000000000e+00
	2.791422434990395e-40
	3.375448668421377e-40
	4.998818636549811e-40
	3.797629564974922e-40
	4.447096867686563e-40
	6.945791827238205e-40
	3.797629564974923e-40
	4.447096867686563e-40
	6.945791827238205e-40
	-7.346762541575752e-40
	0.000000000000000e+00

 10	-1.700000000000000e+00
	2.161647123077533e-12
	0.000000000000000e+00
	0.000000000000000e+00
	0.000000000000000e+00
	4.064322659607881e-02
	-1.700000000000000e+00
	5.963899046517225e-01
	0.000000000000000e+00
	0.000000000000000e+00
	0.000000000000000e+00
	3.860784231252958e-02
	-1.700000000000000e+00
	5.306675321107350e-01
	0.000000000000000e+00
	0.000000000000000e+00
	0.000000000000000e+00
	3.860784231252958e-02
	-1.700000000000000e+00
	5.306675321107350e-01
	0.000000000000000e+00
	-1.700000000000000e+00
	-1.628443909767123e-40
	-1.509830524296937e-40
	-3.375501205004431e-40
	2.957412415675678e-40
	4.386900666723202e-41
	8.433547180354714e-40
	2.957412414666775e-40
	4.386900671736559e-41
	8.433547176826672e-40
	2.818600182673551e-40
	0.000000000000000e+00

 11	-1.690000000000000e+00
	2.159257963647093e-12
	0.000000000000000e+00
	0.000000000000000e+00
	0.000000000000000e+00
	4.064322659607881e-02
	-1.690000000000000e+00
	5.963899046517225e-01
	0.000000000000000e+00
	0.000000000000000e+00
	0.000000000000000e+00
	3.860784231252958e-02
	-1.690000000000000e+00
	5.306675321107350e-01
	0.000000000000000e+00
	0.000000000000000e+00
	0.000000000000000e+00
	3.860784231252958e-02
	-1.690000000000000e+00
	5.306675321107350e-01
	0.000000000000000e+00
	-1.690000000000000e+00
	7.493165341084943e-41
	2.553567832108147e-41
	1.992592819114668e-40
	-6.965808124964156e-40
	-8.513500117603372e-40
	-1.238392425728910e-39
	-6.965808121940562e-40
	-8.513500113739546e-40
	-1.238392425208214e-39
	8.441059904876389e-40
	0.000000000000000e+00

 12	-1.680000000000000e+00
	2.156851524878787e-12
	0.000000000000000e+00
	0.000000000000000e+00
	0.000000000000000e+00
	4.064322659607881e-02
	-1.680000000000000e+00
	5.963899046517225e-01
	0.000000000000000e+00
	0.000000000000000e+00
	0.000000000000000e+00
	3.860784231252958e-02
	-1.680000000000000e+00
	5.306675321107350e-01
	0.000000000000000e+00
	0.000000000000000e+00
	0.000000000000000e+00
	3.860784231252958e-02
	-1.680000000000000e+00
	5.306675321107350e-01
	0.000000000000000e+00
	-1.680000000000000e+00
	-2.579314250431706e-40
	-2.820822015926991e-40
	-4.917120735368126e-40
	-2.430841165424179e-40
	2.512939812223994e-41
	-7.543817477494935e-40
	-2.430841165424178e-40
	2.512939812223989e-41
	-7.543817477494935e-40
	4.445194028748336e-42
	0.000000000000000e+00

 13	-1.670000000000000e+00
	2.154427740388646e-12
	0.000000000000000e+00
	0.000000000000000e+00
	0.000000000000000e+00
	4.064322659607881e-02
	-1.670000000000000e+00
	5.963899046517225e-01
	0.000000000000000e+00
	0.000000000000000e+00
	0.000000000000000e+00
	3.860784231252958e-02
	-1.670000000000000e+00
	5.306675321107350e-01
	0.000000000000000e+00
	0.000000000000000e+00
	0.000000000000000e+00
	3.860784231252958e-02
	-1.670000000000000e+00
	5.306675321107350e-01
	0.000000000000000e+00
	-1.670000000000000e+00
	-2.093271792104480e-41
	8.286193991879283e-41
	-1.456600936819273e-40
	5.374864526792754e-42
	-1.259945552868436e-40
	1.421191488672219e-40
	5.374864829074088e-42
	-1.259945547662653e-40
	1.421191492534875e-40
	6.171318136379737e-41
	0.000000000000000e+00

 14	-1.660000000000000e+00
	2.151986544078042e-12
	0.000000000000000e+00
	0.000000000000000e+00
	0.000000000000000e+00
	4.064322659607881e-02
	-1.660000000000000e+00
	5.963899046517225e-01
	0.000000000000000e+00
	0.000000000000000e+00
	0.000000000000000e+00
	3.860784231252958e-02
	-1.660000000000000e+00
	5.306675321107350e-01
	0.000000000000000e+00
	0.000000000000000e+00
	0.000000000000000e+00
	3.860784231252958e-02
	-1.660000000000000e+00
	5.306675321107350e-01
	0.000000000000000e+00
	-1.660000000000000e+00
	1.538630021657475e-40
	1.451874802225245e-40
	3.164015262747183e-40
	3.971363458447729e-40
	6.578821107445091e-40
	5.335269267898098e-40
	3.971363459455072e-40
	6.578821109627669e-40
	5.335269268737549e-40
	-8.624844247015620e-40
	0.000000000000000e+00

 15	-1.650000000000000e+00
	2.149527870143074e-12
	0.000000000000000e+00
	0.000000000000000e+00
	0.000000000000000e+00
	4.064322659607881e-02
	-1.650000000000000e+00
	5.963899046517225e-01
	0.000000000000000e+00
	0.000000000000000e+00
	0.000000000000000e+00
	3.860784231252958e-02
	-1.650000000000000e+00
	5.306675321107350e-01
	0.000000000000000e+00
	0.000000000000000e+00
	0.000000000000000e+00
	3.860784231252958e-02
	-1.650000000000000e+00
	5.306675321107350e-01
	0.000000000000000e+00
	-1.650000000000000e+00
	-1.676825000663483e-40
	-1.651774021777250e-40
	-3.378700980213198e-40
	-1.044220458360646e-40
	1.757916497971404e-40
	-4.890577873053341e-40
	-1.044220458360645e-40
	1.757916497971404e-40
	-4.890577873053340e-40
	-2.437865398337911e-40
	0.000000000000000e+00

 16	-1.640000000000000e+00
	2.147051653084180e-12
	0.000000000000000e+00
	0.000000000000000e+00
	0.000000000000000e+00
	4.064322659607881e-02
	-1.640000000000000e+00
	5.963899046517225e-01
	0.000000000000000e+00
	0.000000000000000e+00
	0.000000000000000e+00
	3.860784231252958e-02
	-1.640000000000000e+00
	5.306675321107350e-01
	0.000000000000000e+00
	0.000000000000000e+00
	0.000000000000000e+00
	3.860784231252958e-02
	-1.640000000000000e+00
	5.306675321107350e-01
	0.000000000000000e+00
	-1.640000000000000e+00
	-2.838168848771946e-40
	-3.767401460670319e-40
	-4.747105085645520e-40
	-5.224436412626747e-40
	-5.780233222831903e-40
	-9.893076015048336e-40
	-5.224436410611277e-40
	-5.780233219808700e-40
	-9.893076012025133e-40
	8.952851885512365e-40
	0.000000000000000e+00

 17	-1.630000000000000e+00
	2.144557827715994e-12
	0.000000000000000e+00
	0.000000000000000e+00
	0.000000000000000e+00
	4.064322659607881e-02
	-1.630000000000000e+00
	5.963899046517225e-01
	0.000000000000000e+00
	0.000000000000000e+00
	0.000000000000000e+00
	3.860784231252958e-02
	-1.630000000000000e+00
	5.306675321107350e-01
	0.000000000000000e+00
	0.000000000000000e+00
	0.000000000000000e+00
	3.860784231252958e-02
	-1.630000000000000e+00
	5.306675321107350e-01
	0.000000000000000e+00
	-1.630000000000000e+00
	2.199543232247116e-40
	2.775247055114575e-40
	3.823382641626773e-40
	2.013074553903271e-40
	-1.620896350447093e-41
	6.201313296754521e-40
	2.013074553903271e-40
	-1.620896350447093e-41
	6.201313296754521e-40
	-7.642125667498325e-41
	0.000000000000000e+00

 18	-1.620000000000000e+00
	2.142046329177461e-12
	0.000000000000000e+00
	0.000000000000000e+00
	0.000000000000000e+00
	4.064322659607881e-02
	-1.620000000000000e+00
	5.963899046517225e-01
	0.000000000000000e+00
	0.000000000000000e+00
	0.000000000000000e+00
	3.860784231252958e-02
	-1.620000000000000e+00
	5.306675321107350e-01
	0.000000000000000e+00
	0.000000000000000e+00
	0.000000000000000e+00
	3.860784231252958e-02
	-1.620000000000000e+00
	5.306675321107350e-01
	0.000000000000000e+00
	-1.620000000000000e+00
	-1.268780598048576e-40
	-9.049569120318745e-41
	-2.901384882113854e-40
	-4.725991092622692e-40
	-7.568215891519083e-40
	-6.609757386348993e-40
	-4.725991092622692e-40
	-7.568215891519081e-40
	-6.609757386348994e-40
	8.969467947401302e-40
	0.000000000000000e+00

 19	-1.610000000000000e+00
	2.139517092942245e-12
	0.000000000000000e+00
	0.000000000000000e+00
	0.000000000000000e+00
	4.064322659607881e-02
	-1.610000000000000e+00
	5.963899046517225e-01
	0.000000000000000e+00
	0.000000000000000e+00
	0.000000000000000e+00
	3.860784231252958e-02
	-1.610000000000000e+00
	5.306675321107350e-01
	0.000000000000000e+00
	0.000000000000000e+00
	0.000000000000000e+00
	3.860784231252958e-02
	-1.610000000000000e+00
	5.306675321107350e-01
	0.000000000000000e+00
	-1.610000000000000e+00
	1.026069335838348e-40
	1.966448817254298e-40
	1.111759190260746e-40
	3.756949283835351e-40
	4.628496239493817e-40
	6.642351612012236e-40
	3.756949283835351e-40
	4.628496239493816e-40
	6.642351612012236e-40
	-6.835498059302845e-40
	0.000000000000000e+00

 20	-1.600000000000000e+00
	2.136970054829429e-12
	0.000000000000000e+00
	0.000000000000000e+00
	0.000000000000000e+00
	4.064322659607881e-02
	-1.600000000000000e+00
	5.963899046517225e-01
	0.000000000000000e+00
	0.000000000000000e+00
	0.000000000000000e+00
	3.860784231252958e-02
	-1.600000000000000e+00
	5.306675321107350e-01
	0.000000000000000e+00
	0.000000000000000e+00
	0.000000000000000e+00
	3.860784231252958e-02
	-1.600000000000000e+00
	5.306675321107350e-01
	0.000000000000000e+00
	-1.600000000000000e+00
	-2.507546395362004e-40
	-3.363150299040325e-40
	-4.159488887045688e-40
	7.342433687431680e-41
	-4.332608062520950e-41
	2.635990912481599e-40
	7.342433687431682e-41
	-4.332608062520948e-41
	2.635990912481599e-40
	4.687630647032131e-40
	0.000000000000000e+00

 21	-1.590000000000000e+00
	2.134405151014552e-12
	0.000000000000000e+00
	0.000000000000000e+00
	0.000000000000000e+00
	4.064322659607881e-02
	-1.590000000000000e+00
	5.963899046517225e-01
	0.000000000000000e+00
	0.000000000000000e+00
	0.000000000000000e+00
	3.860784231252958e-02
	-1.590000000000000e+00
	5.306675321107350e-01
	0.000000000000000e+00
	0.000000000000000e+00
	0.000000000000000e+00
	3.860784231252958e-02
	-1.590000000000000e+00
	5.306675321107350e-01
	0.000000000000000e+00
	-1.590000000000000e+00
	-1.232889913326076e-40
	-3.969842009864047e-41
	-3.301685538991825e-40
	1.181048451357730e-40
	2.939419812683900e-40
	6.037255413892902e-41
	1.181048450349606e-40
	2.939419811843277e-40
	6.037255392055413e-41
	-4.203325971967574e-40
	0.000000000000000e+00

 22	-1.580000000000000e+00
	2.131822318040994e-12
	0.000000000000000e+00
	0.000000000000000e+00
	0.000000000000000e+00
	4.064322659607881e-02
	-1.580000000000000e+00
	5.963899046517225e-01
	0.000000000000000e+00
	0.000000000000000e+00
	0.000000000000000e+00
	3.860784231252958e-02
	-1.580000000000000e+00
	5.306675321107350e-01
	0.000000000000000e+00
	0.000000000000000e+00
	0.000000000000000e+00
	3.860784231252958e-02
	-1.580000000000000e+00
	5.306675321107350e-01
	0.000000000000000e+00
	-1.580000000000000e+00
	1.456312058099173e-40
	2.597844312913279e-40
	1.771091861384240e-40
	7.647311248543539e-41
	2.527372581794802e-40
	-2.331792072317398e-41
	7.647311258624785e-41
	2.527372582635426e-40
	-2.331792050479900e-41
	-6.509312766283740e-40
	0.000000000000000e+00

 23	-1.570000000000000e+00
	2.129221492831757e-12
	0.000000000000000e+00
	0.000000000000000e+00
	0.000000000000000e+00
	4.064322659607881e-02
	-1.570000000000000e+00
	5.963899046517225e-01
	0.000000000000000e+00
	0.000000000000000e+00
	0.000000000000000e+00
	3.860784231252958e-02
	-1.570000000000000e+00
	5.306675321107350e-01
	0.000000000000000e+00
	0.000000000000000e+00
	0.000000000000000e+00
	3.860784231252958e-02
	-1.570000000000000e+00
