Title: ** sch_path: /foss/designs/daci/tp1/tp1_1.sch
Date: Fri May 23 08:50:45  2025
Command: ngspice-44.2, Build Tue Mar 18 10:43:20 UTC 2025
Plotname: DC transfer characteristic
Flags: real
No. Variables: 33
No. Points: 1267
Variables:
	0	v(v-sweep)	voltage
	1	@m.xm1.msky130_fd_pr__nfet_01v8[cgg]	capacitance
	2	@m.xm1.msky130_fd_pr__nfet_01v8[gm]	admittance
	3	i(@m.xm1.msky130_fd_pr__nfet_01v8[id])	current
	4	v(@m.xm1.msky130_fd_pr__nfet_01v8[vds])	voltage
	5	v(@m.xm1.msky130_fd_pr__nfet_01v8[vdsat])	voltage
	6	v(@m.xm1.msky130_fd_pr__nfet_01v8[vgs])	voltage
	7	v(@m.xm1.msky130_fd_pr__nfet_01v8[vth])	voltage
	8	@m.xm2.msky130_fd_pr__nfet_01v8[gm]	admittance
	9	i(@m.xm2.msky130_fd_pr__nfet_01v8[id])	current
	10	v(@m.xm2.msky130_fd_pr__nfet_01v8[vds])	voltage
	11	v(@m.xm2.msky130_fd_pr__nfet_01v8[vdsat])	voltage
	12	v(@m.xm2.msky130_fd_pr__nfet_01v8[vgs])	voltage
	13	v(@m.xm2.msky130_fd_pr__nfet_01v8[vth])	voltage
	14	@m.xm3.msky130_fd_pr__nfet_01v8[gm]	admittance
	15	i(@m.xm3.msky130_fd_pr__nfet_01v8[id])	current
	16	v(@m.xm3.msky130_fd_pr__nfet_01v8[vds])	voltage
	17	v(@m.xm3.msky130_fd_pr__nfet_01v8[vdsat])	voltage
	18	v(@m.xm3.msky130_fd_pr__nfet_01v8[vgs])	voltage
	19	v(@m.xm3.msky130_fd_pr__nfet_01v8[vth])	voltage
	20	v(d)	voltage
	21	v(g)	voltage
	22	v(m.xm1.msky130_fd_pr__nfet_01v8#body)	voltage
	23	v(m.xm1.msky130_fd_pr__nfet_01v8#dbody)	voltage
	24	v(m.xm1.msky130_fd_pr__nfet_01v8#sbody)	voltage
	25	v(m.xm2.msky130_fd_pr__nfet_01v8#body)	voltage
	26	v(m.xm2.msky130_fd_pr__nfet_01v8#dbody)	voltage
	27	v(m.xm2.msky130_fd_pr__nfet_01v8#sbody)	voltage
	28	v(m.xm3.msky130_fd_pr__nfet_01v8#body)	voltage
	29	v(m.xm3.msky130_fd_pr__nfet_01v8#dbody)	voltage
	30	v(m.xm3.msky130_fd_pr__nfet_01v8#sbody)	voltage
	31	i(vds)	current
	32	i(vgs)	current
Values:
 0	0.000000000000000e+00
	6.044754388530710e-13
	9.801054226378560e-50
	3.630416405936788e-51
	-2.184408259369526e-42
	4.064323228899073e-02
	-1.062591985475397e-42
	5.963899046517225e-01
	0.000000000000000e+00
	0.000000000000000e+00
	-2.664270928841554e-42
	3.860786814978880e-02
	-1.404869586588957e-42
	5.306675321107350e-01
	0.000000000000000e+00
	0.000000000000000e+00
	-2.664270928841553e-42
	3.860786814978880e-02
	-1.404869586588956e-42
	5.306675321107350e-01
	0.000000000000000e+00
	0.000000000000000e+00
	3.063325262884656e-41
	1.084439001868623e-40
	-1.654414230032264e-41
	-1.254036589043844e-40
	-4.272363726291554e-40
	5.102539591600213e-41
	-1.254036589043843e-40
	-4.272363726291552e-40
	5.102539591600221e-41
	-5.417865214194176e-39
	0.000000000000000e+00

 1	1.000000000000000e-02
	6.007439000628424e-13
	3.129424411804188e-10
	1.159172884873808e-11
	9.999999999985675e-03
	4.064323246716828e-02
	-7.003336179448367e-15
	5.963870979862919e-01
	3.615138758035348e-10
	1.325749602690921e-11
	9.999999999990171e-03
	3.860786814978745e-02
	-4.805842309756641e-15
	5.306675321106853e-01
	9.037846895088371e-12
	3.314374006727303e-13
	9.999999999990171e-03
	3.860786814978745e-02
	-4.805842309756642e-15
	5.306675321106853e-01
	1.000000000000000e-02
	0.000000000000000e+00
	1.632339460736709e-13
	4.080848651867025e-13
	8.161697303430996e-14
	1.882050593590177e-13
	4.705126484010827e-13
	9.410252967597047e-14
	1.882050593590177e-13
	4.705126484010827e-13
	9.410252967597046e-14
	-2.631850293255411e-11
	0.000000000000000e+00

 2	2.000000000000000e-02
	5.989651280491911e-13
	5.384359118439452e-10
	1.994425763928753e-11
	1.999999999997528e-02
	4.064323264535698e-02
	-1.204965565707434e-14
	5.963842913208635e-01
	6.143675066009385e-10
	2.253018327622445e-11
	1.999999999998325e-02
	3.860786814978624e-02
	-8.167191437635313e-15
	5.306675321106407e-01
	1.535918766502346e-11
	5.632545819056112e-13
	1.999999999998325e-02
	3.860786814978624e-02
	-8.167191437635311e-15
	5.306675321106407e-01
	2.000000000000000e-02
	0.000000000000000e+00
	3.165847628706882e-13
	7.914619071816690e-13
	1.582923814303942e-13
	3.600721824949760e-13
	9.001804562442501e-13
	1.800360912406776e-13
	3.600721824949760e-13
	9.001804562442503e-13
	1.800360912406776e-13
	-4.524736141320318e-11
	0.000000000000000e+00

 3	3.000000000000000e-02
	5.980042654634742e-13
	6.905809582153573e-10
	2.557988379833510e-11
	2.999999999996819e-02
	4.064323282355733e-02
	-1.545451312816785e-14
	5.963814846554365e-01
	7.779502151349411e-10
	2.852911158886700e-11
	2.999999999997871e-02
	3.860786814978608e-02
	-1.034180295097002e-14
	5.306675321105997e-01
	1.944875537837353e-11
	7.132277897216750e-13
	2.999999999997871e-02
	3.860786814978608e-02
	-1.034180295097002e-14
	5.306675321105997e-01
	3.000000000000000e-02
	0.000000000000000e+00
	4.626071499264081e-13
	1.156517874823323e-12
	2.313035749558982e-13
	5.198245781617743e-13
	1.299561445414325e-12
	2.599122890709978e-13
	5.198245781617743e-13
	1.299561445414325e-12
	2.599122890709978e-13
	-5.800870894745458e-11
	0.000000000000000e+00

 4	4.000000000000000e-02
	5.974316911904577e-13
	7.876095026934255e-10
	2.917393612996972e-11
	3.999999999996359e-02
	4.064323300176885e-02
	-1.762591974519933e-14
	5.963786779900115e-01
	8.767919346553348e-10
	3.215384802324211e-11
	3.999999999997591e-02
	3.860786814978501e-02
	-1.165576990843270e-14
	5.306675321105597e-01
	2.191979836638337e-11
	8.038462005810528e-13
	3.999999999997591e-02
	3.860786814978501e-02
	-1.165576990843270e-14
	5.306675321105597e-01
	4.000000000000000e-02
	0.000000000000000e+00
	6.031954400509204e-13
	1.507988600136908e-12
	3.015977200158485e-13
	6.705937938450257e-13
	1.676484484625388e-12
	3.352968969096884e-13
	6.705937938450257e-13
	1.676484484625388e-12
	3.352968969096883e-13
	-6.625100468227174e-11
	0.000000000000000e+00

 5	5.000000000000000e-02
	5.970644845215575e-13
	8.479793128963278e-10
	3.141010964545183e-11
	4.999999999996060e-02
	4.064323317999170e-02
	-1.897694124413863e-14
	5.963758713245856e-01
	9.344834005957803e-10
	3.426951651969066e-11
	4.999999999997421e-02
	3.860786814978394e-02
	-1.242269973839694e-14
	5.306675321105196e-01
	2.336208501489451e-11
	8.567379129922665e-13
	4.999999999997421e-02
	3.860786814978394e-02
	-1.242269973839694e-14
	5.306675321105196e-01
	5.000000000000000e-02
	0.000000000000000e+00
	7.397542981551859e-13
	1.849385745399834e-12
	3.698771490657160e-13
	8.147019003269359e-13
	2.036754750832988e-12
	4.073509501478188e-13
	8.147019003269359e-13
	2.036754750832988e-12
	4.073509501478187e-13
	-7.159428605518769e-11
	0.000000000000000e+00

 6	6.000000000000000e-02
	5.968154359998749e-13
	8.861888865512591e-10
	3.282544412215274e-11
	5.999999999995866e-02
	4.064323335822595e-02
	-1.983203915714759e-14
	5.963730646591613e-01
	9.684355649043893e-10
	3.551461432215343e-11
	5.999999999997317e-02
	3.860786814978296e-02
	-1.287404769179129e-14
	5.306675321104835e-01
	2.421088912260973e-11
	8.878653580538358e-13
	5.999999999997317e-02
	3.860786814978296e-02
	-1.287404769179129e-14
	5.306675321104835e-01
	6.000000000000000e-02
	0.000000000000000e+00
	8.733252959744208e-13
	2.183313239950150e-12
	4.366626479731019e-13
	9.538707340932422e-13
	2.384676835251493e-12
	4.769353670282325e-13
	9.538707340932422e-13
	2.384676835251492e-12
	4.769353670282324e-13
	-7.509015631512739e-11
	0.000000000000000e+00

 7	7.000000000000001e-02
	5.966389837020359e-13
	9.115787934553380e-10
	3.376592429214874e-11
	6.999999999995725e-02
	4.064323353647160e-02
	-2.040024592652231e-14
	5.963702579937381e-01
	9.892409248761136e-10
	3.627759095907478e-11
	6.999999999997245e-02
	3.860786814978199e-02
	-1.315062672267682e-14
	5.306675321104471e-01
	2.473102312190284e-11
	9.069397739768694e-13
	6.999999999997245e-02
	3.860786814978199e-02
	-1.315062672267682e-14
	5.306675321104471e-01
	7.000000000000001e-02
	0.000000000000000e+00
	1.004680768370221e-12
	2.511701920941850e-12
	5.023403841687984e-13
	1.089377052470345e-12
	2.723442631196923e-12
	5.446885262141102e-13
	1.089377052470345e-12
	2.723442631196923e-12
	5.446885262141102e-13
	-7.776179700158536e-11
	0.000000000000000e+00

 8	8.000000000000000e-02
	5.965095233364431e-13
	9.295228700635007e-10
	3.443060286013267e-11
	7.999999999995620e-02
	4.064323371472809e-02
	-2.080182256134804e-14
	5.963674513283147e-01
	1.002722230255766e-09
	3.677197902916510e-11
	7.999999999997193e-02
	3.860786814978102e-02
	-1.332984239808608e-14
	5.306675321104110e-01
	2.506805575639416e-11
	9.192994757291274e-13
	7.999999999997193e-02
	3.860786814978102e-02
	-1.332984239808608e-14
	5.306675321104110e-01
	8.000000000000000e-02
	0.000000000000000e+00
	1.134393408627427e-12
	2.835983521587043e-12
	5.671967042952197e-13
	1.222167582562716e-12
	3.055418956430473e-12
	6.110837912576718e-13
	1.222167582562716e-12
	3.055418956430474e-12
	6.110837912576718e-13
	-7.969447324285284e-11
	0.000000000000000e+00

 9	9.000000000000000e-02
	5.964117948083743e-13
	9.429962954942000e-10
	3.492968368698804e-11
	8.999999999995534e-02
	4.064323389299613e-02
	-2.110335056090858e-14
	5.963646446628896e-01
	1.011990505559020e-09
	3.711186638343792e-11
	8.999999999997153e-02
	3.860786814978009e-02
	-1.345305156401149e-14
	5.306675321103766e-01
	2.529976263897551e-11
	9.277966595859482e-13
	8.999999999997155e-02
	3.860786814978009e-02
	-1.345305156401149e-14
	5.306675321103766e-01
	9.000000000000000e-02
	0.000000000000000e+00
	1.262887873996161e-12
	3.157219685011039e-12
	6.314439369774223e-13
	1.352944331080483e-12
	3.382360827727476e-12
	6.764721655139692e-13
	1.352944331080483e-12
	3.382360827727477e-12
	6.764721655139693e-13
	-8.139977580867708e-11
	0.000000000000000e+00

 10	9.999999999999999e-02
	5.963362543386751e-13
	9.536609032237237e-10
	3.532472289270967e-11
	9.999999999995463e-02
	4.064323407127563e-02
	-2.134202008103415e-14
	5.963618379974680e-01
	1.018731585761142e-09
	3.735907615141791e-11
	9.999999999997118e-02
	3.860786814977917e-02
	-1.354266510490572e-14
	5.306675321103422e-01
	2.546828964402856e-11
	9.339769037854477e-13
	9.999999999997120e-02
	3.860786814977917e-02
	-1.354266510490571e-14
	5.306675321103422e-01
	9.999999999999999e-02
	0.000000000000000e+00
	1.390479051667972e-12
	3.476197629192713e-12
	6.952395258111767e-13
	1.482227842348126e-12
	3.705569605899141e-12
	7.411139211452328e-13
	1.482227842348126e-12
	3.705569605899141e-12
	7.411139211452327e-13
	-8.287770469905809e-11
	0.000000000000000e+00

 11	1.100000000000000e-01
	5.962766890419419e-13
	9.624753133277747e-10
	3.565122881037070e-11
	1.099999999999539e-01
	4.064323424956645e-02
	-2.153928407295642e-14
	5.963590313320448e-01
	1.023890163025718e-09
	3.754825218941492e-11
	1.099999999999709e-01
	3.860786814977825e-02
	-1.361124141868110e-14
	5.306675321103080e-01
	2.559725407564294e-11
	9.387063047353730e-13
	1.099999999999709e-01
	3.860786814977825e-02
	-1.361124141868110e-14
	5.306675321103080e-01
	1.100000000000000e-01
	0.000000000000000e+00
	1.517400433343219e-12
	3.793501083382967e-12
	7.587002166466586e-13
	1.610404104690027e-12
	4.026010261756431e-12
	8.052020523136465e-13
	1.610404104690028e-12
	4.026010261756432e-12
	8.052020523136466e-13
	-8.435563358943909e-11
	0.000000000000000e+00

 12	1.200000000000000e-01
	5.962289151904216e-13
	9.700155888843295e-10
	3.593053944558678e-11
	1.199999999999534e-01
	4.064323442786812e-02
	-2.170803424840153e-14
	5.963562246666213e-01
	1.028017141600499e-09
	3.769959731970553e-11
	1.199999999999706e-01
	3.860786814977733e-02
	-1.366610402841291e-14
	5.306675321102737e-01
	2.570042854001248e-11
	9.424899329926382e-13
	1.199999999999706e-01
	3.860786814977733e-02
	-1.366610402841291e-14
	5.306675321102737e-01
	1.200000000000000e-01
	0.000000000000000e+00
	1.643825155229408e-12
	4.109562888100569e-12
	8.219125775876192e-13
	1.737759331939581e-12
	4.344398329882834e-12
	8.688796659359021e-13
	1.737759331939581e-12
	4.344398329882836e-12
	8.688796659359023e-13
	-8.549250196665525e-11
	0.000000000000000e+00

 13	1.300000000000000e-01
	5.961900327892356e-13
	9.766428012782227e-10
	3.617602927709535e-11
	1.299999999999528e-01
	4.064323460618139e-02
	-2.185635102160668e-14
	5.963534180011982e-01
	1.031446872438558e-09
	3.782537289828531e-11
	1.299999999999704e-01
	3.860786814977640e-02
	-1.371169767564954e-14
	5.306675321102394e-01
	2.578617181096396e-11
	9.456343224571326e-13
	1.299999999999704e-01
	3.860786814977640e-02
	-1.371169767564954e-14
	5.306675321102394e-01
	1.300000000000000e-01
	0.000000000000000e+00
	1.769881599390242e-12
	4.424703998504777e-12
	8.849407996659079e-13
	1.864505754242752e-12
	4.661264385643272e-12
	9.322528770849782e-13
	1.864505754242752e-12
	4.661264385643272e-12
	9.322528770849782e-13
	-8.662937034387141e-11
	0.000000000000000e+00

 14	1.400000000000000e-01
	5.961579807816172e-13
	9.825925046887604e-10
	3.639642348915116e-11
	1.399999999999524e-01
	4.064323478450607e-02
	-2.198950585805912e-14
	5.963506113357766e-01
	1.034390007038398e-09
	3.793330396106254e-11
	1.399999999999702e-01
	3.860786814977549e-02
	-1.375082268590773e-14
	5.306675321102052e-01
	2.585975017595995e-11
	9.483325990265635e-13
	1.399999999999702e-01
	3.860786814977549e-02
	-1.375082268590773e-14
	5.306675321102052e-01
	1.400000000000000e-01
	0.000000000000000e+00
	1.895664962287036e-12
	4.739162405748883e-12
	9.478324811121808e-13
	1.990800742172176e-12
	4.977001855469332e-12
	9.954003710471898e-13
	1.990800742172176e-12
	4.977001855469331e-12
	9.954003710471894e-13
	-8.776623872108757e-11
	0.000000000000000e+00

 15	1.500000000000000e-01
	5.961312620384770e-13
	9.880240960379957e-10
	3.659762631779789e-11
	1.499999999999518e-01
	4.064323496284206e-02
	-2.211106590036858e-14
	5.963478046703534e-01
	1.036983848239617e-09
	3.802842569373117e-11
	1.499999999999699e-01
	3.860786814977456e-02
	-1.378530431400156e-14
	5.306675321101707e-01
	2.592459620599043e-11
	9.507106423432793e-13
	1.499999999999699e-01
	3.860786814977456e-02
	-1.378530431400156e-14
	5.306675321101707e-01
	1.500000000000000e-01
	0.000000000000000e+00
	2.021245832956810e-12
	5.053114582425435e-12
	1.010622916444947e-12
	2.116760987430712e-12
	5.291902468618163e-12
	1.058380493673963e-12
	2.116760987430711e-12
	5.291902468618163e-12
	1.058380493673963e-12
	-8.901679393602535e-11
	0.000000000000000e+00

 16	1.600000000000000e-01
	5.961087679733442e-13
	9.930490416525119e-10
	3.678376659734168e-11
	1.599999999999514e-01
	4.064323514118916e-02
	-2.222352565259500e-14
	5.963449980049301e-01
	1.039320658722294e-09
	3.811412156416425e-11
	1.599999999999698e-01
	3.860786814977462e-02
	-1.381636906703499e-14
	5.306675321101384e-01
	2.598301646805736e-11
	9.528530391041062e-13
	1.599999999999698e-01
	3.860786814977462e-02
	-1.381636906703499e-14
	5.306675321101384e-01
	1.600000000000000e-01
	0.000000000000000e+00
	2.146676553808917e-12
	5.366691384557817e-12
	1.073338276868881e-12
	2.242473017971387e-12
	5.606182544972340e-12
	1.121236508941811e-12
	2.242473017971387e-12
	5.606182544972341e-12
	1.121236508941811e-12
	-9.003997547551990e-11
	0.000000000000000e+00

 17	1.700000000000000e-01
	5.960896636041780e-13
	9.977476054976604e-10
	3.695781739238582e-11
	1.699999999999510e-01
	4.064323531954765e-02
	-2.232868134126955e-14
	5.963421913395084e-01
	1.041464144872940e-09
	3.819272782056610e-11
	1.699999999999695e-01
	3.860786814977370e-02
	-1.384486383498211e-14
	5.306675321101040e-01
	2.603660362182349e-11
	9.548181955141526e-13
	1.699999999999696e-01
	3.860786814977370e-02
	-1.384486383498211e-14
	5.306675321101040e-01
	1.700000000000000e-01
	0.000000000000000e+00
	2.271995937213277e-12
	5.679989843070830e-12
	1.135997968568944e-12
	2.368000995053924e-12
	5.920002487681169e-12
	1.184000497480594e-12
	2.368000995053924e-12
	5.920002487681170e-12
	1.184000497480594e-12
	-9.129053069045767e-11
	0.000000000000000e+00

 18	1.800000000000000e-01
	5.960733103892758e-13
	1.002179104680834e-09
	3.712197587296522e-11
	1.799999999999505e-01
	4.064323549791746e-02
	-2.242786042328831e-14
	5.963393846740852e-01
	1.043459375537347e-09
	3.826589723309003e-11
	1.799999999999694e-01
	3.860786814977278e-02
	-1.387138774702348e-14
	5.306675321100698e-01
	2.608648438843368e-11
	9.566474308272508e-13
	1.799999999999694e-01
	3.860786814977278e-02
	-1.387138774702347e-14
	5.306675321100698e-01
	1.800000000000000e-01
	0.000000000000000e+00
	2.397232762893200e-12
	5.993081907272749e-12
	1.198616381406789e-12
	2.493392494832682e-12
	6.233481237130547e-12
	1.246696247367490e-12
	2.493392494832682e-12
	6.233481237130547e-12
	1.246696247367490e-12
	-9.220002539223060e-11
	0.000000000000000e+00

 19	1.900000000000000e-01
	5.960592132958550e-13
	1.006388397646015e-09
	3.727790364438259e-11
	1.899999999999501e-01
	4.064323567629862e-02
	-2.252206678518835e-14
	5.963365780086619e-01
	1.045338933388133e-09
	3.833482467748192e-11
	1.899999999999692e-01
	3.860786814977098e-02
	-1.389637394561697e-14
	5.306675321100373e-01
	2.613347333470333e-11
	9.583706169370479e-13
	1.899999999999692e-01
	3.860786814977098e-02
	-1.389637394561696e-14
	5.306675321100373e-01
	1.900000000000000e-01
	0.000000000000000e+00
	2.522408371273806e-12
	6.306020928226373e-12
	1.261204185594977e-12
	2.618682795456392e-12
	6.546706988692300e-12
	1.309341397676863e-12
	2.618682795456392e-12
	6.546706988692301e-12
	1.309341397676863e-12
	-9.345058060716838e-11
	0.000000000000000e+00

 20	2.000000000000000e-01
	5.960469837831514e-13
	1.010410109220793e-09
	3.742688324758736e-11
	1.999999999999497e-01
	4.064323585469094e-02
	-2.261207529545994e-14
	5.963337713432403e-01
	1.047126836483826e-09
	3.840039094694271e-11
	1.999999999999690e-01
	3.860786814977099e-02
	-1.392014171829795e-14
	5.306675321100032e-01
	2.617817091209566e-11
	9.600097736735678e-13
	1.999999999999690e-01
	3.860786814977099e-02
	-1.392014171829794e-14
	5.306675321100032e-01
	2.000000000000000e-01
	0.000000000000000e+00
	2.647538586473320e-12
	6.618846466227271e-12
	1.323769293192620e-12
	2.743898055991395e-12
	6.859745140032288e-12
	1.371949027941885e-12
	2.743898055991394e-12
	6.859745140032286e-12
	1.371949027941884e-12
	-9.413270163349807e-11
	0.000000000000000e+00

 21	2.100000000000000e-01
	5.960363134599122e-13
	1.014271455441086e-09
	3.756992279379682e-11
	2.099999999999493e-01
	4.064323603309457e-02
	-2.269849502129687e-14
	5.963309646778169e-01
	1.048841101805258e-09
	3.846325676243406e-11
	2.099999999999689e-01
	3.860786814976912e-02
	-1.394293057641500e-14
	5.306675321099688e-01
	2.622102754513145e-11
	9.615814190608515e-13
	2.099999999999689e-01
	3.860786814976912e-02
	-1.394293057641499e-14
	5.306675321099688e-01
	2.100000000000000e-01
	0.000000000000000e+00
	2.772635142218522e-12
	6.931587855592385e-12
	1.386317571063106e-12
	2.869057673621959e-12
	7.172644184111177e-12
	1.434528836754688e-12
	2.869057673621958e-12
	7.172644184111176e-12
	1.434528836754688e-12
	-9.515588317299262e-11
	0.000000000000000e+00

 22	2.200000000000001e-01
	5.960269550394108e-13
	1.017994178134984e-09
	3.770782762358433e-11
	2.199999999999488e-01
	4.064323621150960e-02
	-2.278181252262887e-14
	5.963281580123956e-01
	1.050495459715775e-09
	3.852392564556293e-11
	2.199999999999687e-01
	3.860786814976919e-02
	-1.396492304655065e-14
	5.306675321099362e-01
	2.626238649289437e-11
	9.630981411390734e-13
	2.199999999999687e-01
	3.860786814976919e-02
	-1.396492304655065e-14
	5.306675321099362e-01
	2.200000000000001e-01
	0.000000000000000e+00
	2.897706739173936e-12
	7.244266847983028e-12
	1.448853369538700e-12
	2.994176031535652e-12
	7.485440078897885e-12
	1.497088015709056e-12
	2.994176031535652e-12
	7.485440078897885e-12
	1.497088015709056e-12
	-9.640643838793039e-11
	0.000000000000000e+00

 23	2.300000000000001e-01
	5.960187083706938e-13
	1.021595899151967e-09
	3.784125046899769e-11
	2.299999999999485e-01
	4.064323638993596e-02
	-2.286242215840148e-14
	5.963253513469722e-01
	1.052100524630275e-09
	3.858278684949224e-11
	2.299999999999685e-01
	3.860786814976733e-02
	-1.398626023297646e-14
	5.306675321099019e-01
	2.630251311575687e-11
	9.645696712373059e-13
	2.299999999999685e-01
	3.860786814976733e-02
	-1.398626023297646e-14
	5.306675321099019e-01
	2.300000000000001e-01
	0.000000000000000e+00
	3.022759828960999e-12
	7.556899572452795e-12
