Title: ** sch_path: /foss/designs/daci/tp1/tp1_1.sch
Date: Fri May 23 08:50:47  2025
Command: ngspice-44.2, Build Tue Mar 18 10:43:20 UTC 2025
Plotname: DC transfer characteristic
Flags: real
No. Variables: 33
No. Points: 181
Variables:
	0	v(v-sweep)	voltage
	1	@m.xm1.msky130_fd_pr__nfet_01v8[cgg]	capacitance
	2	@m.xm1.msky130_fd_pr__nfet_01v8[gm]	admittance
	3	i(@m.xm1.msky130_fd_pr__nfet_01v8[id])	current
	4	v(@m.xm1.msky130_fd_pr__nfet_01v8[vds])	voltage
	5	v(@m.xm1.msky130_fd_pr__nfet_01v8[vdsat])	voltage
	6	v(@m.xm1.msky130_fd_pr__nfet_01v8[vgs])	voltage
	7	v(@m.xm1.msky130_fd_pr__nfet_01v8[vth])	voltage
	8	@m.xm2.msky130_fd_pr__nfet_01v8[gm]	admittance
	9	i(@m.xm2.msky130_fd_pr__nfet_01v8[id])	current
	10	v(@m.xm2.msky130_fd_pr__nfet_01v8[vds])	voltage
	11	v(@m.xm2.msky130_fd_pr__nfet_01v8[vdsat])	voltage
	12	v(@m.xm2.msky130_fd_pr__nfet_01v8[vgs])	voltage
	13	v(@m.xm2.msky130_fd_pr__nfet_01v8[vth])	voltage
	14	@m.xm3.msky130_fd_pr__nfet_01v8[gm]	admittance
	15	i(@m.xm3.msky130_fd_pr__nfet_01v8[id])	current
	16	v(@m.xm3.msky130_fd_pr__nfet_01v8[vds])	voltage
	17	v(@m.xm3.msky130_fd_pr__nfet_01v8[vdsat])	voltage
	18	v(@m.xm3.msky130_fd_pr__nfet_01v8[vgs])	voltage
	19	v(@m.xm3.msky130_fd_pr__nfet_01v8[vth])	voltage
	20	v(d)	voltage
	21	v(g)	voltage
	22	v(m.xm1.msky130_fd_pr__nfet_01v8#body)	voltage
	23	v(m.xm1.msky130_fd_pr__nfet_01v8#dbody)	voltage
	24	v(m.xm1.msky130_fd_pr__nfet_01v8#sbody)	voltage
	25	v(m.xm2.msky130_fd_pr__nfet_01v8#body)	voltage
	26	v(m.xm2.msky130_fd_pr__nfet_01v8#dbody)	voltage
	27	v(m.xm2.msky130_fd_pr__nfet_01v8#sbody)	voltage
	28	v(m.xm3.msky130_fd_pr__nfet_01v8#body)	voltage
	29	v(m.xm3.msky130_fd_pr__nfet_01v8#dbody)	voltage
	30	v(m.xm3.msky130_fd_pr__nfet_01v8#sbody)	voltage
	31	i(vds)	current
	32	i(vgs)	current
Values:
 0	0.000000000000000e+00
	5.959722914205969e-13
	1.375401870097382e-09
	5.094888953057434e-11
	1.799999999999895e+00
	4.064326454298144e-02
	-3.078162075842536e-14
	5.958847048756207e-01
	1.252643917963105e-09
	4.593714856248129e-11
	1.799999999999941e+00
	3.860786814963225e-02
	-1.665221635416065e-14
	5.306675321046327e-01
	3.131609794907763e-11
	1.148428714062032e-12
	1.799999999999941e+00
	3.860786814963225e-02
	-1.665221635416065e-14
	5.306675321046327e-01
	1.800000000000000e+00
	0.000000000000000e+00
	2.267942380142198e-11
	5.663553614305864e-11
	1.133971190032822e-11
	2.276112164838896e-11
	5.686959192893060e-11
	1.138056082374418e-11
	2.276112164838896e-11
	5.686959192893061e-11
	1.138056082374418e-11
	-2.446540747769177e-10
	0.000000000000000e+00

 1	1.000000000000000e-02
	5.932925459208781e-13
	1.801580032545232e-09
	6.673807260004378e-11
	1.799999999999875e+00
	4.064326633258711e-02
	9.999999999959680e-03
	5.958847048756207e-01
	1.645195014822284e-09
	6.033731446067535e-11
	1.799999999999930e+00
	3.860787624897186e-02
	9.999999999978127e-03
	5.306675321046327e-01
	4.112987537055710e-11
	1.508432861516884e-12
	1.799999999999930e+00
	3.860787624897186e-02
	9.999999999978127e-03
	5.306675321046327e-01
	1.800000000000000e+00
	1.000000000000000e-02
	2.268918934634732e-11
	5.664041891552096e-11
	1.134459467279104e-11
	2.276632725012371e-11
	5.687219472979777e-11
	1.138316362461166e-11
	2.276632725012370e-11
	5.687219472979777e-11
	1.138316362461165e-11
	-2.755768946371973e-10
	0.000000000000000e+00

 2	2.000000000000000e-02
	5.908262679152292e-13
	2.359777275552521e-09
	8.741948949698348e-11
	1.799999999999850e+00
	4.064326867669686e-02
	1.999999999994719e-02
	5.958847048756207e-01
	2.160692902869664e-09
	7.924986234808633e-11
	1.799999999999916e+00
	3.860788688628672e-02
	1.999999999997127e-02
	5.306675321046327e-01
	5.401732257174159e-11
	1.981246558702158e-12
	1.799999999999917e+00
	3.860788688628672e-02
	1.999999999997127e-02
	5.306675321046327e-01
	1.800000000000000e+00
	2.000000000000000e-02
	2.270198071751133e-11
	5.664681460110248e-11
	1.135099035837325e-11
	2.277316405905737e-11
	5.687561313426435e-11
	1.138658202907862e-11
	2.277316405905736e-11
	5.687561313426435e-11
	1.138658202907862e-11
	-3.155946615152061e-10
	0.000000000000000e+00

 3	3.000000000000000e-02
	5.885849129342705e-13
	3.090872129559643e-09
	1.145085501127470e-10
	1.799999999999818e+00
	4.064327174707284e-02
	2.999999999993082e-02
	5.958847048756207e-01
	2.837608979823499e-09
	1.040879095093577e-10
	1.799999999999898e+00
	3.860790085637369e-02
	2.999999999996227e-02
	5.306675321046327e-01
	7.094022449558747e-11
	2.602197737733943e-12
	1.799999999999898e+00
	3.860790085637369e-02
	2.999999999996227e-02
	5.306675321046327e-01
	1.800000000000000e+00
	3.000000000000000e-02
	2.271873518939992e-11
	5.665519183704617e-11
	1.135936759431782e-11
	2.278214291070782e-11
	5.688010256008924e-11
	1.139107145490403e-11
	2.278214291070781e-11
	5.688010256008922e-11
	1.139107145490402e-11
	-3.692548489198089e-10
	0.000000000000000e+00

 4	4.000000000000000e-02
	5.865814310945867e-13
	4.048392023516757e-09
	1.499898581759021e-10
	1.799999999999775e+00
	4.064327576865708e-02
	3.999999999990938e-02
	5.958847048756207e-01
	3.726433614889282e-09
	1.367066659350318e-10
	1.799999999999875e+00
	3.860791920268711e-02
	3.999999999995044e-02
	5.306675321046327e-01
	9.316084037223205e-11
	3.417666648375795e-12
	1.799999999999875e+00
	3.860791920268711e-02
	3.999999999995044e-02
	5.306675321046327e-01
	1.800000000000000e+00
	4.000000000000000e-02
	2.274068023070887e-11
	5.666616435769983e-11
	1.137034011497265e-11
	2.279393445477312e-11
	5.688599833212143e-11
	1.139696722693691e-11
	2.279393445477312e-11
	5.688599833212145e-11
	1.139696722693691e-11
	-4.374669515527785e-10
	0.000000000000000e+00

 5	5.000000000000000e-02
	5.848303586840665e-13
	5.302422817456222e-09
	1.964623726460163e-10
	1.799999999999718e+00
	4.064328103602488e-02
	4.999999999988131e-02
	5.958847048756188e-01
	4.893425918285680e-09
	1.795415298383449e-10
	1.799999999999844e+00
	3.860794329499499e-02
	4.999999999993492e-02
	5.306675321046327e-01
	1.223356479571420e-10
	4.488538245958622e-12
	1.799999999999844e+00
	3.860794329499499e-02
	4.999999999993492e-02
	5.306675321046327e-01
	1.800000000000000e+00
	5.000000000000000e-02
	2.276942328588046e-11
	5.668053588528456e-11
	1.138471164255891e-11
	2.280941907568798e-11
	5.689374064257828e-11
	1.140470953739465e-11
	2.280941907568799e-11
	5.689374064257830e-11
	1.140470953739465e-11
	-5.275069270282984e-10
	0.000000000000000e+00

 6	6.000000000000000e-02
	5.833479079138348e-13
	6.944724520765768e-09
	2.573294259652976e-10
	1.799999999999645e+00
	4.064328793492140e-02
	5.999999999984453e-02
	5.958847048756188e-01
	6.425521339429975e-09
	2.357892085852771e-10
	1.799999999999803e+00
	3.860797493125159e-02
	5.999999999991453e-02
	5.306675321046327e-01
	1.606380334857494e-10
	5.894730214631928e-12
	1.799999999999803e+00
	3.860797493125159e-02
	5.999999999991453e-02
	5.306675321046327e-01
	1.800000000000000e+00
	6.000000000000000e-02
	2.280706930028386e-11
	5.669935889248487e-11
	1.140353464976121e-11
	2.282975236638726e-11
	5.690390728792717e-11
	1.141487618274470e-11
	2.282975236638726e-11
	5.690390728792718e-11
	1.141487618274469e-11
	-6.448317435570061e-10
	0.000000000000000e+00

 7	7.000000000000001e-02
	5.821520357971027e-13
	9.095423990453521e-09
	3.370474336538846e-10
	1.799999999999549e+00
	4.064329697045173e-02
	6.999999999979638e-02
	5.958847048756188e-01
	8.436764740313174e-09
	3.096452025258985e-10
	1.799999999999749e+00
	3.860801647116276e-02
	6.999999999988776e-02
	5.306675321046327e-01
	2.109191185078293e-10
	7.741130063147462e-12
	1.799999999999749e+00
	3.860801647116276e-02
	6.999999999988776e-02
	5.306675321046327e-01
	1.800000000000000e+00
	7.000000000000001e-02
	2.285637454551244e-11
	5.672401151509734e-11
	1.142818727237630e-11
	2.285645097650130e-11
	5.691725659298317e-11
	1.142822548780225e-11
	2.285645097650131e-11
	5.691725659298320e-11
	1.142822548780225e-11
	-8.030838216654956e-10
	0.000000000000000e+00

 8	8.000000000000000e-02
	5.812623563455900e-13
	1.191176526515918e-08
	4.414513566398287e-10
	1.799999999999422e+00
	4.064330880396938e-02
	7.999999999973330e-02
	5.958847048756190e-01
	1.107673371414574e-08
	4.066151266446135e-10
	1.799999999999679e+00
	3.860807101126845e-02
	7.999999999985261e-02
	5.306675321046327e-01
	2.769183428536434e-10
	1.016537816611534e-11
	1.799999999999679e+00
	3.860807101126845e-02
	7.999999999985261e-02
	5.306675321046327e-01
	1.800000000000000e+00
	8.000000000000000e-02
	2.292094791552273e-11
	5.675629820010010e-11
	1.146047395738249e-11
	2.289150515171105e-11
	5.693478368058674e-11
	1.144575257540782e-11
	2.289150515171105e-11
	5.693478368058674e-11
	1.144575257540782e-11
	-1.005901140160859e-09
	0.000000000000000e+00

 9	9.000000000000000e-02
	5.807008054350039e-13
	1.559956917921264e-08
	5.781806145220095e-10
	1.799999999999257e+00
	4.064332430134834e-02
	8.999999999965068e-02
	5.958847048756190e-01
	1.454156399615191e-08
	5.339226967692058e-10
	1.799999999999586e+00
	3.860814261439339e-02
	8.999999999980644e-02
	5.306675321046327e-01
	3.635390999037978e-10
	1.334806741923015e-11
	1.799999999999587e+00
	3.860814261439339e-02
	8.999999999980644e-02
	5.306675321046327e-01
	1.800000000000000e+00
	9.000000000000000e-02
	2.300551435055906e-11
	5.679858141761514e-11
	1.150275717490202e-11
	2.293752621537397e-11
	5.695779421241647e-11
	1.146876310724020e-11
	2.293752621537396e-11
	5.695779421241645e-11
	1.146876310724019e-11
	-1.273292582482100e-09
	0.000000000000000e+00

 10	9.999999999999999e-02
	5.804910612950910e-13
	2.042819480484990e-08
	7.572363236137057e-10
	1.799999999999041e+00
	4.064334459614286e-02
	9.999999999954250e-02
	5.958847048756173e-01
	1.908837323295462e-08
	7.010442076118748e-10
	1.799999999999465e+00
	3.860823661021896e-02
	9.999999999974586e-02
	5.306675321046327e-01
	4.772093308238655e-10
	1.752610519029687e-11
	1.799999999999465e+00
	3.860823661021896e-02
	9.999999999974586e-02
	5.306675321046327e-01
	1.800000000000000e+00
	9.999999999999999e-02
	2.311625948370779e-11
	5.685395398418540e-11
	1.155812974147817e-11
	2.299793977371939e-11
	5.698800099158691e-11
	1.149896988641411e-11
	2.299793977371939e-11
	5.698800099158691e-11
	1.149896988641411e-11
	-1.625267032068223e-09
	0.000000000000000e+00

 11	1.100000000000000e-01
	5.806587943153679e-13
	2.675010879842957e-08
	9.917101658683557e-10
	1.799999999998757e+00
	4.064337117219562e-02
	1.099999999994008e-01
	5.958847048756173e-01
	2.505411929124798e-08
	9.204084405300323e-10
	1.799999999999306e+00
	3.860835998886778e-02
	1.099999999996663e-01
	5.306675321046327e-01
	6.263529822811996e-10
	2.301021101325081e-11
	1.799999999999306e+00
	3.860835998886778e-02
	1.099999999996663e-01
	5.306675321046327e-01
	1.800000000000000e+00
	1.100000000000000e-01
	2.326128043837423e-11
	5.692646446151327e-11
	1.163064021881373e-11
	2.307723871853881e-11
	5.702765046399364e-11
	1.153861935882540e-11
	2.307723871853879e-11
	5.702765046399363e-11
	1.153861935882539e-11
	-2.083652361761779e-09
	0.000000000000000e+00

 12	1.200000000000000e-01
	5.812316754893956e-13
	3.502645373045682e-08
	1.298737616980595e-09
	1.799999999998386e+00
	4.064340597167485e-02
	1.199999999992153e-01
	5.958847048756157e-01
	3.288023963579862e-08
	1.208312786218486e-09
	1.799999999999097e+00
	3.860852191605341e-02
	1.199999999995620e-01
	5.306675321046327e-01
	8.220059908949654e-10
	3.020781965546216e-11
	1.799999999999097e+00
	3.860852191605341e-02
	1.199999999995620e-01
	5.306675321046327e-01
	1.800000000000000e+00
	1.200000000000000e-01
	2.345117538743308e-11
	5.702141193603568e-11
	1.172558769334622e-11
	2.318131438264476e-11
	5.707968829604271e-11
	1.159065719088045e-11
	2.318131438264476e-11
	5.707968829604271e-11
	1.159065719088045e-11
	-2.685737854335457e-09
	0.000000000000000e+00

 13	1.300000000000000e-01
	5.822393547529423e-13
	4.586044617696512e-08
	1.700744275010722e-09
	1.799999999997900e+00
	4.064345153632937e-02
	1.299999999989724e-01
	5.958847048756141e-01
	4.314481886262226e-08
	1.586121750944232e-09
	1.799999999998824e+00
	3.860873440695155e-02
	1.299999999994250e-01
	5.306675321046327e-01
	1.078620471565557e-09
	3.965304377360580e-11
	1.799999999998824e+00
	3.860873440695155e-02
	1.299999999994250e-01
	5.306675321046327e-01
	1.800000000000000e+00
	1.300000000000000e-01
	2.369981438775475e-11
	5.714573143618732e-11
	1.184990719351107e-11
	2.331788976198443e-11
	5.714797598570742e-11
	1.165894488055301e-11
	2.331788976198443e-11
	5.714797598570742e-11
	1.165894488055300e-11
	-3.476088750176132e-09
	0.000000000000000e+00

 14	1.400000000000000e-01
	5.837134033086237e-13
	6.004098427932669e-08
	2.227074964667801e-09
	1.799999999997264e+00
	4.064351119212100e-02
	1.399999999986545e-01
	5.958847048756125e-01
	5.660454711517230e-08
	2.081833956184292e-09
	1.799999999998464e+00
	3.860901320718053e-02
	1.399999999992453e-01
	5.306675321046347e-01
	1.415113677879308e-09
	5.204584890460730e-11
	1.799999999998464e+00
	3.860901320718053e-02
	1.399999999992453e-01
	5.306675321046347e-01
	1.800000000000000e+00
	1.400000000000000e-01
	2.402534694946274e-11
	5.730849771702931e-11
	1.201267347437032e-11
	2.349708592281635e-11
	5.723757406611664e-11
	1.174854296097254e-11
	2.349708592281634e-11
	5.723757406611663e-11
	1.174854296097253e-11
	-4.510184226091951e-09
	0.000000000000000e+00

 15	1.500000000000000e-01
	5.856872138185674e-13
	7.859955888744268e-08
	2.916122507667425e-09
	1.799999999996431e+00
	4.064358929047874e-02
	1.499999999982382e-01
	5.958847048756110e-01
	7.424939393269511e-08
	2.732129541272748e-09
	1.799999999997993e+00
	3.860937894370799e-02
	1.499999999990096e-01
	5.306675321046347e-01
	1.856234848317378e-09
	6.830323853181871e-11
	1.799999999997993e+00
	3.860937894370799e-02
	1.499999999990096e-01
	5.306675321046347e-01
	1.800000000000000e+00
	1.500000000000000e-01
	2.445151862872262e-11
	5.752158355664349e-11
	1.222575931400714e-11
	2.373216203173929e-11
	5.735511212056927e-11
	1.186608101543869e-11
	2.373216203173929e-11
	5.735511212056928e-11
	1.186608101543869e-11
	-5.867150321137160e-09
	0.000000000000000e+00

 16	1.600000000000000e-01
	5.881958523270735e-13
	1.028844869361694e-07
	3.818108415606666e-09
	1.799999999995340e+00
	4.064369152342773e-02
	1.599999999976932e-01
	5.958847048756077e-01
	9.737376862616189e-08
	3.585043184672665e-09
	1.799999999997374e+00
	3.860985862717354e-02
	1.599999999987004e-01
	5.306675321046347e-01
	2.434344215654048e-09
	8.962607961681662e-11
	1.799999999997374e+00
	3.860985862717354e-02
	1.599999999987004e-01
	5.306675321046347e-01
	1.800000000000000e+00
	1.600000000000000e-01
	2.500939080131576e-11
	5.780051964291945e-11
	1.250469540031271e-11
	2.404048147415559e-11
	5.750927184176583e-11
	1.202024073665299e-11
	2.404048147415559e-11
	5.750927184176583e-11
	1.202024073665298e-11
	-7.645212463103235e-09
	0.000000000000000e+00

 17	1.700000000000000e-01
	5.912758559978383e-13
	1.346576800495824e-07
	4.998713666377203e-09
	1.799999999993913e+00
	4.064382533503427e-02
	1.699999999969800e-01
	5.958847048756047e-01
	1.276690168789204e-07
	4.703450847780596e-09
	1.799999999996562e+00
	3.861048761108025e-02
	1.699999999982950e-01
	5.306675321046347e-01
	3.191725421973010e-09
	1.175862711945149e-10
	1.799999999996562e+00
	3.861048761108025e-02
	1.699999999982950e-01
	5.306675321046347e-01
	1.800000000000000e+00
	1.700000000000000e-01
	2.573958615700519e-11
	5.816561732073720e-11
	1.286979307816921e-11
	2.444477200985162e-11
	5.771141710959864e-11
	1.222238600450905e-11
	2.444477200985161e-11
	5.771141710959864e-11
	1.222238600450905e-11
	-9.974428394343704e-09
	0.000000000000000e+00

 18	1.800000000000000e-01
	5.949649712659893e-13
	1.762207011257016e-07
	6.543817229650684e-09
	1.799999999992045e+00
	4.064400045834853e-02
	1.799999999960465e-01
	5.958847048755999e-01
	1.673434713885632e-07
	6.169613414612853e-09
	1.799999999995500e+00
	3.861131214407509e-02
	1.799999999977635e-01
	5.306675321046347e-01
	4.183586784714079e-09
	1.542403353653213e-10
	1.799999999995500e+00
	3.861131214407509e-02
	1.799999999977635e-01
	5.306675321046347e-01
	1.800000000000000e+00
	1.800000000000000e-01
	2.669521924256446e-11
	5.864343386348151e-11
	1.334760962096427e-11
	2.497476778617491e-11
	5.797641499774038e-11
	1.248738389268126e-11
	2.497476778617490e-11
	5.797641499774037e-11
	1.248738389268125e-11
	-1.302487362409011e-08
	0.000000000000000e+00

 19	1.900000000000000e-01
	5.993018278600655e-13
	2.305788420945696e-07
	8.565677023785997e-09
	1.799999999989601e+00
	4.064422961574338e-02
	1.899999999948249e-01
	5.958847048755936e-01
	2.192780008305928e-07
	8.091090880720278e-09
	1.799999999994106e+00
	3.861239269074922e-02
	1.899999999970670e-01
	5.306675321046347e-01
	5.481950020764820e-09
	2.022772720180069e-10
	1.799999999994106e+00
	3.861239269074922e-02
	1.899999999970670e-01
	5.306675321046347e-01
	1.800000000000000e+00
	1.900000000000000e-01
	2.794571898958749e-11
	5.926868373694683e-11
	1.397285949449596e-11
	2.566934644687552e-11
	5.832370432806457e-11
	1.283467322304540e-11
	2.566934644687551e-11
	5.832370432806457e-11
	1.283467322304540e-11
	-1.701937435427681e-08
	0.000000000000000e+00

 20	2.000000000000000e-01
	6.043255453813385e-13
	3.016544964796698e-07
	1.121098749698332e-08
	1.799999999986402e+00
	4.064452943178667e-02
	1.999999999932267e-01
	5.958847048755839e-01
	2.872271673432531e-07
	1.060843061372621e-08
	1.799999999992280e+00
	3.861380824626428e-02
	1.999999999961545e-01
	5.306675321046366e-01
	7.180679183581327e-09
	2.652107653431554e-10
	1.799999999992280e+00
	3.861380824626428e-02
	1.999999999961545e-01
	5.306675321046366e-01
	1.800000000000000e+00
	2.000000000000000e-01
	2.958181166511700e-11
	6.008673007465113e-11
	1.479090583228713e-11
	2.657930695879931e-11
	5.877868458399227e-11
	1.328965347902543e-11
	2.657930695879929e-11
	5.877868458399227e-11
	1.328965347902542e-11
	-2.224896888947114e-08
	0.000000000000000e+00

 21	2.100000000000000e-01
	6.100752707611453e-13
	3.945643491795961e-07
	1.467137634496853e-08
	1.799999999982219e+00
	4.064492162228930e-02
	2.099999999911361e-01
	5.958847048755727e-01
	3.760788018319017e-07
	1.390514731874000e-08
	1.799999999989890e+00
	3.861566193313043e-02
	2.099999999949594e-01
	5.306675321046366e-01
	9.401970045797544e-09
	3.476286829685001e-10
	1.799999999989889e+00
	3.861566193313043e-02
	2.099999999949594e-01
	5.306675321046366e-01
	1.800000000000000e+00
	2.100000000000000e-01
	3.172201197170792e-11
	6.115683022786753e-11
	1.586100598561713e-11
	2.777097485406159e-11
	5.937451853157859e-11
	1.388548742668031e-11
	2.777097485406159e-11
	5.937451853157861e-11
	1.388548742668031e-11
	-2.909564500441775e-08
	0.000000000000000e+00

 22	2.200000000000001e-01
	6.165896469565672e-13
	5.159790459159062e-07
	1.919706797269583e-08
	1.799999999976748e+00
	4.064543454179702e-02
	2.199999999884018e-01
	5.958847048755583e-01
	4.921881444036998e-07
	1.822065654556611e-08
	1.799999999986760e+00
	3.861808824759685e-02
	2.199999999933951e-01
	5.306675321046385e-01
	1.230470361009250e-08
	4.555164136391527e-10
	1.799999999986760e+00
	3.861808824759685e-02
	2.199999999933951e-01
	5.306675321046385e-01
	1.800000000000000e+00
	2.200000000000001e-01
	3.452107200411951e-11
	6.255636024396992e-11
	1.726053600186811e-11
	2.933087341766616e-11
	6.015446781332228e-11
	1.466543670851368e-11
	2.933087341766616e-11
	6.015446781332227e-11
	1.466543670851368e-11
	-3.804871084867045e-08
	0.000000000000000e+00

 23	2.300000000000001e-01
	6.239062156714353e-13
	6.745892592639077e-07
	2.511465317094264e-08
	1.799999999969594e+00
	4.064610519566426e-02
	2.299999999848266e-01
	5.958847048755392e-01
	6.438067899801557e-07
	2.386700483218797e-08
	1.799999999982665e+00
	3.862126242174922e-02
	2.299999999913483e-01
	5.306675321046403e-01
	1.609516974950389e-08
	5.966751208046992e-10
	1.799999999982665e+00
	3.862126242174922e-02
	2.299999999913483e-01
	5.306675321046403e-01
	1.800000000000000e+00
	2.300000000000001e-01
	3.818096858533356e-11
	6.438630853444173e-11
	1.909048429253420e-11
	3.137176437318628e-11
	6.117491329100561e-11
	1.568588218631441e-11
